! Created with skrf (http://scikit-rf.org).
# MHz S RI R 376.73031366686166 
!freq ReS11 ImS11 ReS21 ImS21 ReS12 ImS12 ReS22 ImS22
100.0 -0.05794516361342261 0.30733269248576695 -0.23509084951258602 -0.3730905395384365 -0.23509084951258652 -0.37309053953843696 -0.29061863480097655 0.11555014047223838
103.01003344481606 -0.04930182422491758 0.2985596050813947 -0.25728176434439465 -0.35587565073961536 -0.2572817643443949 -0.3558756507396155 -0.28203136885597213 0.1096668347290551
106.0200668896321 -0.041861206566585846 0.2896517193065423 -0.2781781580603642 -0.33734186260803506 -0.27817815806036367 -0.33734186260803456 -0.27382832244774896 0.10328857118722164
109.03010033444816 -0.03560491448062042 0.2807369237054656 -0.29770273984121765 -0.3175911267033808 -0.29770273984121765 -0.3175911267033811 -0.2660424683940261 0.09644861470023233
112.04013377926421 -0.030501031743069174 0.27193922802744597 -0.3157869190249597 -0.29672972673409176 -0.31578691902495987 -0.29672972673409237 -0.25870383072928343 0.08918287191803989
115.05016722408027 -0.026504701687039722 0.2633772590916215 -0.3323710173786599 -0.27486743647074596 -0.33237101737865954 -0.2748674364707457 -0.2518392402213405 0.0815296075231082
118.06020066889631 -0.023558886014442115 0.25516284126163286 -0.3474043856161092 -0.252116672546057 -0.3474043856161092 -0.25211667254605685 -0.24547212238888766 0.07352913572758663
121.07023411371237 -0.021595289270199894 0.24739968450042782 -0.3608454252663989 -0.22859165489149244 -0.3608454252663987 -0.2285916548914921 -0.23962232063096617 0.06522349166523904
124.08026755852842 -0.02053543229364925 0.24018220049580902 -0.3726615189145122 -0.20440758717478913 -0.3726615189145118 -0.20440758717478869 -0.23430595629268358 0.056656087583480924
127.09030100334448 -0.020291855315523258 0.2335944644080306 -0.3828288736442148 -0.1796798689048865 -0.38282887364421514 -0.17967986890488674 -0.2295353266811434 0.04787135886520884
130.10033444816054 -0.02076942930370345 0.2277093365064018 -0.39133228416261323 -0.15452334989059163 -0.391332284162613 -0.15452334989059177 -0.22531884124074433 0.03891440488707727
133.11036789297657 -0.02186675271836845 0.2225877544565964 -0.3981648235294161 -0.12905163651580767 -0.3981648235294166 -0.12905163651580762 -0.22166099532559547 0.029830629556593047
136.12040133779263 -0.02347761003106833 0.21827820342132798 -0.4033274706169037 -0.10337645787371953 -0.4033274706169046 -0.10337645787371948 -0.21856238029435068 0.020665386076269388
139.1304347826087 -0.02549246817966287 0.21481636756808575 -0.40682868436482517 -0.07760709823564202 -0.40682868436482533 -0.07760709823564198 -0.21601972802163333 0.011463630075063097
142.14046822742475 -0.02779998753415794 0.21222496315376005 -0.40868393555513693 -0.05184990066992159 -0.4086839355551363 -0.05184990066992162 -0.2140259873884457 0.002269584745032305
145.1505016722408 -0.03028852487799443 0.21051375017834562 -0.40891520721300106 -0.026207844924023133 -0.40891520721300023 -0.026207844924023 -0.21257042989514974 -0.006873578953285664
148.16053511705684 -0.03284760728872224 0.2096797167522244 -0.4075504748509077 -0.0007802009872349488 -0.4075504748509082 -0.0007802009872346455 -0.21163878124347274 -0.01592404457619842
151.1705685618729 -0.0353693575420775 0.2097074278670874 -0.40462317762945216 0.024337741894413553 -0.40462317762945293 0.024337741894413515 -0.2112133755625582 -0.02484163317978061
154.18060200668896 -0.03774985366749593 0.2105695282413561 -0.40017169113467294 0.04905487253885278 -0.40017169113467266 0.04905487253885266 -0.2112733289077775 -0.03358806585575874
157.19063545150502 -0.03989040745143456 0.21222738734696917 -0.3942388118966891 0.07328438471612672 -0.39423881189668963 0.07328438471612704 -0.21179472873544325 -0.042127205303009646
160.20066889632105 -0.04169874891977371 0.2146318736147138 -0.3868712630287951 0.09694383814376778 -0.386871263028795 0.09694383814376772 -0.21275083624374375 -0.05042527650320498
163.2107023411371 -0.043090106039829934 0.21772424413956482 -0.3781192294818229 0.11995515928805899 -0.37811922948182275 0.11995515928805875 -0.21411229875948318 -0.05845106709546358
166.22073578595317 -0.043988170983161046 0.22143713592813402 -0.3680359304162064 0.1422445886745726 -0.368035930416206 0.14224458867457246 -0.215847369728676 -0.06617610849627638
169.23076923076923 -0.044325946210926115 0.22569564479544996 -0.35667723512065874 0.16374258226292043 -0.3566772351206586 0.16374258226292016 -0.2179221343223584 -0.07357483917424307
172.24080267558526 -0.044046465326366246 0.23041847836398993 -0.344101327775091 0.18438367514536927 -0.3441013277750914 0.1843836751453693 -0.22030073918165177 -0.08062475175367106
175.25083612040132 -0.04310338504124722 0.2355191701717056 -0.33036842518356213 0.2041063163968452 -0.3303684251835621 0.2041063163968452 -0.2229456253818749 -0.08730652577824652
178.26086956521738 -0.04146144569779503 0.24090734257903063 -0.3155405504023505 0.22285268434638938 -0.31554055040235013 0.22285268434638922 -0.2258177642776518 -0.09360414800896666
181.27090301003344 -0.03909679856418374 0.2464900068954345 -0.29968136396375583 0.24056849186928794 -0.2996813639637555 0.24056849186928783 -0.22887689648207593 -0.0995050220542289
184.2809364548495 -0.035997198585708046 0.2521728898408692 -0.2828560531472959 0.2572027915243611 -0.2828560531472958 0.2572027915243608 -0.23208177481508824 -0.10500006893041905
187.29096989966553 -0.03216206144807909 0.2578617760345314 -0.26513127847039264 0.27270779048847255 -0.2651312784703925 0.2727077904884726 -0.23539041261011356 -0.11008381982613702
190.3010033444816 -0.027602383733029867 0.2634638565845124 -0.24657517524989786 0.2870386852702708 -0.24657517524989808 0.28703868527027104 -0.23876033927326074 -0.1147545018909814
193.31103678929765 -0.022340524676077333 0.2688890739648275 -0.2272574067109158 0.3001535261105653 -0.22725740671091602 0.3001535261105652 -0.24214886542341757 -0.11901411729125354
196.3210702341137 -0.01640984764552833 0.27405145314750967 -0.20724926367651147 0.3120131207820638 -0.2072492636765114 0.3120131207820637 -0.24551336027955334 -0.12286851507303835
199.33110367892974 -0.009854219041483259 0.27887040835545607 -0.1866238043493341 0.32258098716054245 -0.18662380434933434 0.32258098716054273 -0.24881154417583845 -0.12632745455399313
202.3411371237458 -0.002727361971990583 0.28327201378111433 -0.16545602608737303 0.33182336341759394 -0.16545602608737298 0.33182336341759344 -0.25200179914527987 -0.1294046580401036
205.35117056856186 0.004907938075028817 0.2871902251621801 -0.14382305938315562 0.33970928393542843 -0.14382305938315565 0.33970928393542826 -0.2550435003853319 -0.1321178496496562
208.36120401337791 0.012980778141753413 0.2905680372301001 -0.12180437249396578 0.3462107280122571 -0.12180437249396593 0.3462107280122576 -0.25789737106940247 -0.13448877594955255
211.37123745819395 0.02141323517412297 0.293358559795126 -0.09948197337237007 0.35130284705039533 -0.09948197337236966 0.3513028470503946 -0.26052586236107167 -0.13654320300444495
214.38127090301 0.030121616397351336 0.29552599268754387 -0.07694059376586908 0.3549642741340052 -0.07694059376586909 0.35496427413400505 -0.26289355958991456 -0.13831088335518474
217.39130434782606 0.03901786108750893 0.29704647706986304 -0.05426783867169031 0.3571775176475323 -0.054267838671690265 0.3571775176475329 -0.2649676143312981 -0.13982548544182208
220.40133779264212 0.048011089051375744 0.2979087979531345 -0.03155428285628657 0.3579294378077743 -0.03155428285628672 0.35792943780777503 -0.2667182005795621 -0.14112447714475757
223.41137123745816 0.05700928699888619 0.2981149103321711 -0.008893495017802004 0.3572118016510661 -0.008893495017802075 0.3572118016510657 -0.268118991312329 -0.14224895452740247
226.42140468227421 0.06592111876020901 0.2976802594953243 0.013618030449212304 0.355021908132298 0.013618030449212356 0.3550219081322982 -0.2691476495328528 -0.1432434066292125
229.43143812709027 0.07465783897516665 0.29663386511067036 0.03588105404359036 0.3513632705992483 0.03588105404359036 0.3513632705992482 -0.26978632539564995 -0.14415540739233382
232.44147157190633 0.08313528257329222 0.29501813902443674 0.05779390306770235 0.34624633910534197 0.057793903067702476 0.3462463391053429 -0.27002214835171495 -0.14503522662273274
235.45150501672242 0.09127589429212313 0.2928884087255404 0.0792529317241237 0.33968923998762085 0.07925293172412343 0.33968923998761996 -0.2698477005172891 -0.14593535339367725
238.46153846153845 0.09901075400868914 0.2903121225085545 0.1001531428777576 0.33171850511063267 0.10015314287775783 0.3317185051106333 -0.26926145484142866 -0.14690992757968513
241.4715719063545 0.10628154528836481 0.2873677188195855 0.12038898015920839 0.3223697584878008 0.12038898015920886 0.32236975848780225 -0.26826815933073855 -0.14801407830930347
244.48160535117057 0.11304240693138179 0.2841431512930997 0.13985529281766892 0.3116883240357368 0.13985529281766892 0.3116883240357366 -0.26687914682749214 -0.14930317203677682
247.49163879598663 0.11926160118342782 0.2807340726082949 0.15844846806341562 0.2997297154448474 0.15844846806341517 0.2997297154448465 -0.2651125488930307 -0.1508319775760923
250.50167224080266 0.12492292850994313 0.2772416943099841 0.176067716774545 0.286559968032938 0.17606771677454539 0.2865599680329386 -0.2629933924844283 -0.15265376065103223
253.51170568561872 0.13002681825624546 0.273770355679073 0.19261648874288653 0.27225577343672036 0.1926164887428866 0.27225577343672075 -0.2605535595626293 -0.15481932603435544
256.52173913043475 0.13459102788477478 0.2704248518357537 0.20800398362772735 0.25690438146039146 0.20800398362772657 0.25690438146039074 -0.2578315927063305 -0.15737603083057594
259.53177257525084 0.1386508913634591 0.26730758846323144 0.22214671415063844 0.2406032395725594 0.22214671415063844 0.24060323957255927 -0.25487233430264095 -0.1603667974770121
262.5418060200669 0.14225906994246384 0.2645156465624896 0.23497006958892708 0.2234593494548862 0.23497006958892705 0.2234593494548861 -0.25172639288930104 -0.16382915912684115
265.55183946488296 0.14548477587011405 0.26213785405497647 0.24640982114571064 0.20558833144202057 0.2464098211457107 0.20558833144202066 -0.2484494375286064 -0.16779437276096193
268.561872909699 0.14841246096774718 0.2602519703927968 0.25641350709128513 0.1871132011611294 0.2564135070912857 0.18711320116112967 -0.2451013293354392 -0.17228663622532334
271.5719063545151 0.15113998632915748 0.25892209431726 0.2649416353486933 0.16816287741788663 0.26494163534869336 0.1681628774178868 -0.24174510794833085 -0.17732244408496017
274.58193979933105 0.15377631521372487 0.2581964025521447 0.2719686448683966 0.1488704553914239 0.2719686448683967 0.14887045539142388 -0.2384458591968098 -0.1829101135625784
277.5919732441472 0.1564387966120604 0.2581053180360009 0.277483574818646 0.1293712933511624 0.27748357481864533 0.12937129335116207 -0.2352694977949743 -0.18904950592687492
280.6020066889632 0.1592501299673077 0.2586601903970114 0.2814904020545123 0.10980097321290494 0.28149040205451237 0.10980097321290483 -0.23228150490740512 -0.19573196077486624
283.61204013377926 0.16233512017512491 0.2598525495140608 0.28400802188557867 0.09029320422261863 0.28400802188557817 0.09029320422261844 -0.22954566430686646 -0.2029404511898726
286.6220735785953 0.16581734458348185 0.261653966568017 0.2850698638659793 0.07097774403169871 0.2850698638659793 0.07097774403169863 -0.22712284215648942 -0.21064995740861792
289.6321070234114 0.16981585908297414 0.2640165278483774 0.28472315195702724 0.05197841188206819 0.2847231519570274 0.05197841188206826 -0.2250698540078686 -0.2188280461688544
292.6421404682274 0.1744420679779332 0.26687389693326175 0.28302783561604816 0.03341126443926275 0.2830278356160482 0.033411264439262706 -0.22343845847046584 -0.22743563313848822
295.6521739130435 0.17979687233760738 0.27014291296660975 0.2800552338252541 0.015382996314968141 0.28005523382525416 0.01538299631496824 -0.2222745104897983 -0.23642789749729573
298.6622073578595 0.18596819482545573 0.2737256486961186 0.27588644664497874 -0.002010384776651868 0.27588644664497985 -0.0020103847766519494 -0.22161729880312808 -0.24575531146234575
301.6722408026756 0.19302895706504553 0.27751183338337887 0.27061059770536283 -0.018684572955340754 0.27061059770536317 -0.01868457295534085 -0.22149908260878054 -0.2553647437233493
304.6822742474916 0.20103556030380942 0.28138153375552233 0.2643229756656099 -0.03456764996023162 0.26432297566560975 -0.03456764996023162 -0.22194483255096686 -0.2652005945491076
307.69230769230774 0.21002689354493603 0.28520798127940705 0.25712314300256867 -0.049600438669150905 0.257123143002569 -0.049600438669151044 -0.22297217153697657 -0.27520592166175417
310.7023411371237 0.2200238674491934 0.28886043599388156 0.24911307685482065 -0.06373653629233196 0.24911307685482087 -0.06373653629233202 -0.22459150232983527 -0.28532351955473845
313.7123745819398 0.2310294489255051 0.29220698515016835 0.24039539967335857 -0.0769420521974618 0.24039539967335843 -0.07694205219746178 -0.2268063018085595 -0.2954969202907161
316.72240802675583 0.24302915178994583 0.2951171877731611 0.23107174795873095 -0.08919508561183526 0.23107174795873106 -0.08919508561183523 -0.22961355658669105 -0.3056712903929482
319.7324414715719 0.255991924046346 0.2974644925023645 0.22124131634435598 -0.10048498563434333 0.2212413163443561 -0.1004849856343434 -0.23300431145925093 -0.3157942056435486
322.7424749163879 0.26987136259129885 0.299128374161422 0.2109996026595496 -0.11081144000566699 0.2109996026595497 -0.11081144000566692 -0.2369643008604293 -0.325816292860053
325.75250836120404 0.28460718137447216 0.29999615298616433 0.2004373682225554 -0.12018344012460615 0.20043736822255478 -0.12018344012460584 -0.24147463396345858 -0.3356917345551317
328.76254180602 0.30012685878023615 0.29996447806701276 0.18963981716475448 -0.12861816825819097 0.18963981716475478 -0.12861816825819114 -0.24651250594065205 -0.3453786384219019
331.77257525083616 0.3163473935054617 0.2989404723700386 0.17868598957083703 -0.13613984929720305 0.17868598957083734 -0.1361398492972033 -0.25205191086869644 -0.3548392785839246
334.78260869565213 0.3331771046118501 0.29684255004475835 0.16764835593532074 -0.1427786043374799 0.16764835593532115 -0.1427786043374802 -0.2580643354404457 -0.36404021938282005
337.7926421404682 0.3505174198121509 0.2936009272648942 0.1565925949975606 -0.14856933739491548 0.1565925949975608 -0.14856933739491582 -0.2645194166798883 -0.37295233513400194
340.80267558528425 0.3682646055382904 0.2891578555092902 0.1455775333853195 -0.15355068020882684 0.1455775333853194 -0.15355068020882667 -0.27138555094753014 -0.38155074083522605
343.81270903010034 0.3863114021757651 0.28346761111708435 0.13465522351434187 -0.15776401379002908 0.13465522351434184 -0.15776401379002908 -0.2786304454267845 -0.3898146493972538
346.8227424749163 0.4045485374173319 0.2764962774392943 0.12387113562542397 -0.16125257946165494 0.12387113562542389 -0.1612525794616547 -0.2862216068217296 -0.39772717074984587
349.83277591973246 0.4228660995333825 0.26822135634651056 0.11326444041852346 -0.16406068685591899 0.11326444041852361 -0.16406068685591912 -0.2941267650606882 -0.40527506734299995
352.84280936454843 0.4411547601733401 0.258631244666623 0.10286836018425681 -0.16623302180697602 0.10286836018425669 -0.16623302180697566 -0.3023142323332644 -0.41244847929184175
355.8528428093646 0.45930684293585056 0.2477246087425214 0.09271056836960766 -0.16781405337665997 0.09271056836960771 -0.16781405337666017 -0.31075319978162236 -0.41924063086706725
358.86287625418055 0.4772172393221527 0.23550968711041986 0.08281361990986225 -0.1688475363606959 0.0828136199098624 -0.1688475363606962 -0.31941397564554497 -0.42564752835111386
361.87290969899664 0.4947841778503213 0.22200354764546626 0.07319539721402199 -0.16937610349556154 0.07319539721402218 -0.1693761034955619 -0.32826816967482597 -0.4316676575752823
364.88294314381267 0.5119098551516958 0.2072313216835837 0.06386955924952147 -0.16944094013889335 0.0638695592495215 -0.16944094013889313 -0.3372888292347629 -0.43730168781014106
367.89297658862876 0.5285009399264958 0.19122543382452117 0.0548459836174322 -0.1690815333305095 0.05484598361743232 -0.1690815333305096 -0.3464505328102443 -0.44255218715995914
370.90301003344484 0.544468961853212 0.17402484251008493 0.04613119376184758 -0.16833548675322868 0.04613119376184747 -0.16833548675322849 -0.3557294466297303 -0.4474233532491128
373.9130434782609 0.5597305980800592 0.15567430315980196 0.0377287654681923 -0.16723839310139332 0.03772876546819254 -0.1672383931013942 -0.36510334994680277 -0.45192076180340923
376.9230769230769 0.5742078699237066 0.136223662697187 0.02963970855155258 -0.1658237556374876 0.029639708551552752 -0.16582375563748836 -0.37455163419082976 -0.45605113472716735
379.933110367893 0.587828261994965 0.11572719174103574 0.021862821113712606 -0.16412295119129458 0.021862821113712717 -0.16412295119129483 -0.38405528077863227 -0.4598221284522235
382.943143812709 0.6005247752796999 0.09424295856999387 0.014395014966403349 -0.16216522746266748 0.014395014966403432 -0.16216522746266782 -0.3935968219055899 -0.4632421426754907
385.9531772575251 0.6122359248244212 0.07183224717794984 0.007231611797414023 -0.15997772817147526 0.007231611797414035 -0.15997772817147565 -0.40316028813908605 -0.46632014909057673
388.96321070234114 0.6229056916892867 0.04855902029359438 0.00036661042053546514 -0.15758554031230948 0.0003666104205354622 -0.15758554031230945 -0.4127311461433548 -0.4690655393374953
391.9732441471572 0.6324834377994614 0.024489427103471573 -0.0062070739730193895 -0.15501175848351273 -0.006207073973019433 -0.1550117584835131 -0.422296229389923 -0.47148799112335354
394.98327759197326 0.6409237912959337 -0.00030864544534625615 -0.012497397227192463 -0.1522775619457285 -0.01249739722719252 -0.1522775619457283 -0.4318436642636086 -0.47359735128750896
397.9933110367893 0.648186508993299 -0.025765979519079107 -0.018512998679390755 -0.14940230070798988 -0.01851299867939071 -0.1494023007079894 -0.4413627935676835 -0.4754035344795282
401.0033444816053 0.6542363216179992 -0.05181239364267404 -0.02426303687106692 -0.14640358752922744 -0.02426303687106683 -0.14640358752922747 -0.45084409906692985 -0.4769164360721511
404.0133779264214 0.6590427666404571 -0.07837707279312622 -0.029757046628255332 -0.14329739325450447 -0.029757046628255433 -0.14329739325450458 -0.46027912438504687 -0.4781458579304663
407.02341137123744 0.6625800127365217 -0.10538886397127295 -0.035004815608124434 -0.14009814337673107 -0.03500481560812451 -0.14009814337673138 -0.46966039929235026 -0.47910144569144775
410.03344481605353 0.6648266792200344 -0.13277653993772665 -0.04001627843666398 -0.13681881412699756 -0.04001627843666389 -0.13681881412699728 -0.4789813661786843 -0.47979263626505764
413.04347826086956 0.665765653178171 -0.16046903377774635 -0.04480142662867412 -0.13347102675278957 -0.044801426628674056 -0.1334710267527894 -0.48823630930215045 -0.4802286143414774
416.0535117056856 0.665383906510935 -0.1883956468826496 -0.04937023257302939 -0.13006513894728827 -0.04937023257302949 -0.13006513894728847 -0.49742028723297277 -0.4804182767725967
419.0635451505017 0.6636723146201826 -0.21648623281806395 -0.053732585974596236 -0.12661033264923968 -0.053732585974596306 -0.12661033264923988 -0.5065290687701631 -0.48037020378443374
422.0735785953177 0.6606254781058861 -0.24467135940497758 -0.05789824126214934 -0.12311469764654616 -0.0578982412621493 -0.12311469764654598 -0.5155590724928435 -0.48009263606727914
425.0836120401338 0.6562415485008883 -0.2728824511784369 -0.06187677459352831 -0.11958531059269045 -0.06187677459352846 -0.1195853105926906 -0.5245073100147285 -0.4795934568789581
428.09364548494983 0.650522058803581 -0.30105191421916844 -0.0656775492109753 -0.11602830918811326 -0.06567754921097513 -0.11602830918811305 -0.5333713329361182 -0.4788801783818417
