! Created with skrf (http://scikit-rf.org).
# MHz S RI R 376.73031366686166 
!freq ReS11 ImS11 ReS21 ImS21 ReS12 ImS12 ReS22 ImS22
100.0 0.016127108270630047 0.1783741577859011 -0.09791634207025157 -0.710301084311571 -0.0979163420702519 -0.7103010843115717 -0.1420409064439585 0.10909539258640037
103.01003344481606 0.023588307839343015 0.1722382046737449 -0.13401856925264272 -0.7038443811569552 -0.13401856925264244 -0.7038443811569548 -0.13619783467496005 0.10803960961522611
106.0200668896321 0.030407260684873122 0.16573430191150357 -0.1697000566447119 -0.6955493493971144 -0.16970005664471233 -0.6955493493971152 -0.13041752467313825 0.10669456214157563
109.03010033444816 0.03656350536032599 0.15892047524989422 -0.20486696837635518 -0.6854436631626325 -0.20486696837635562 -0.6854436631626324 -0.12471558553283532 0.10506488520475696
112.04013377926421 0.04204166955456318 0.15185599844858966 -0.23942734301190854 -0.6735598110139125 -0.23942734301190918 -0.6735598110139136 -0.11910736156007712 0.10315610823383198
115.05016722408027 0.04683155505480707 0.14460094811353713 -0.27329134427849244 -0.6599349627893707 -0.2732913442784935 -0.6599349627893728 -0.11360787911201811 0.10097464309347341
118.06020066889631 0.05092818356988559 0.13721575177727663 -0.3063715017430093 -0.6446108228100955 -0.30637150174300964 -0.6446108228100961 -0.1082317937833398 0.09852776883687071
121.07023411371237 0.05433180277533868 0.12976073270470972 -0.33858294060880256 -0.6276334702512328 -0.3385829406088023 -0.627633470251234 -0.10299333816182679 0.09582361316066576
124.08026755852842 0.05704785225956178 0.12229565497554234 -0.36984359987264925 -0.6090531875521333 -0.36984359987264964 -0.6090531875521339 -0.09790627037692629 0.0928711305746075
127.09030100334448 0.05908688937601109 0.11487927243280077 -0.4000744381582408 -0.5889242777928089 -0.40007443815823956 -0.5889242777928069 -0.09298382366492094 0.0896800773163891
130.10033444816054 0.06046447533706153 0.10756888509353679 -0.4291996266230484 -0.5673048720125617 -0.4291996266230475 -0.5673048720125604 -0.08823865717244453 0.08626098305987698
133.11036789297657 0.061201022216987984 0.10041990659248667 -0.4571467284207503 -0.5442567274874868 -0.4571467284207487 -0.5442567274874855 -0.08368280821639176 0.08262511948231321
136.12040133779263 0.06132160186147431 0.09348544617192006 -0.4838468642904376 -0.5198450180161012 -0.4838468642904387 -0.5198450180161027 -0.07932764621296087 0.0787844657729646
139.1304347826087 0.06085571802556805 0.08681590864141303 -0.5092348639357702 -0.49413811728647955 -0.5092348639357696 -0.4941381172864791 -0.07518382848165411 0.07475167118187287
142.14046822742475 0.05983704337778879 0.08045861561051038 -0.5332494029511117 -0.46720737641326704 -0.5332494029511123 -0.4672073764132673 -0.07126125812165768 0.0705400147226638
145.1505016722408 0.058303123311940236 0.07445745114613594 -0.5558331251468854 -0.4391268967391225 -0.5558331251468867 -0.4391268967391232 -0.06756904414826273 0.06616336215759186
148.16053511705684 0.056295048796988045 0.06885253482667891 -0.5769327502212642 -0.40997329899165397 -0.576932750221264 -0.4099732989916539 -0.06411546406604646 0.06163612040605554
151.1705685618729 0.05385710076619998 0.06367992495752867 -0.5964991668198019 -0.37982548987455833 -0.5964991668198021 -0.3798254898745589 -0.06090792904352402 0.05697318952951613
154.18060200668896 0.0510363687970708 0.058971354480646 -0.6144875111168491 -0.3487644271497866 -0.6144875111168503 -0.348764427149787 -0.057952951841157285 0.052189912456040294
157.19063545150502 0.0478823470608411 0.054754001855726764 -0.6308572311422584 -0.31687288423695337 -0.6308572311422576 -0.3168728842369528 -0.05525611763111299 0.04730202261646271
160.20066889632105 0.044446510722728455 0.051050298915293724 -0.6455721371627094 -0.28423521531676915 -0.6455721371627084 -0.284235215316769 -0.05282205783322477 0.04232558967137823
163.2107023411371 0.04078187614951434 0.04787777740333832 -0.6586004385081141 -0.2509371218776883 -0.6586004385081136 -0.25093712187768785 -0.05065442707746477 0.03727696351383347
166.22073578595317 0.03694254842845088 0.045248955599803964 -0.6699147673092862 -0.21706542158955963 -0.6699147673092857 -0.217065421589559 -0.04875588338902972 0.03217271673665148
169.23076923076923 0.03298325981964079 0.04317126611426342 -0.6794921896823285 -0.1827078203255874 -0.6794921896823286 -0.18270782032558755 -0.047128071678173664 0.027029585755896646
172.24080267558526 0.02895890285223718 0.04164702560455946 -0.6873142049575747 -0.14795268808488826 -0.6873142049575743 -0.14795268808488846 -0.04577161060330924 0.021864410783076604
175.25083612040132 0.024924061832884536 0.040673446843000394 -0.6933667336055525 -0.11288883949324326 -0.6933667336055519 -0.11288883949324297 -0.04468608286289612 0.016694074838402795
178.26086956521738 0.020932546562612675 0.04024269321683621 -0.6976400945587682 -0.07760531948006474 -0.6976400945587687 -0.07760531948006501 -0.04387002895939676 0.0115354419959528
181.27090301003344 0.017036932056324394 0.04034197541406964 -0.7001289726658148 -0.04219119464590105 -0.7001289726658133 -0.042191194645900654 -0.04332094446727665 0.006405295048965087
184.2809364548495 0.01328810802766972 0.0409536897128584 -0.7008323770428323 -0.006735350748050015 -0.7008323770428325 -0.006735350748050004 -0.04303528082676536 0.0013202727799724867
187.29096989966553 0.009734841842379605 0.04205559696540617 -0.69975359110641 0.028673703357093638 -0.6997535911064113 0.028673703357093537 -0.04300844967605923 -0.003703192983719239
190.3010033444816 0.0064233585560896644 0.043621041047637366 -0.6969001150815337 0.06394802506661515 -0.6969001150815316 0.06394802506661519 -0.04323483072687055 -0.0086489403535141
193.31103678929765 0.0033969415397110403 0.045619205236233196 -0.6922836017778228 0.0990004205205964 -0.6922836017778229 0.09900042052059672 -0.043707783181774054 -0.013501140231283681
196.3210702341137 0.0006955570577967252 0.04801540467661458 -0.6859197864173511 0.13374462016042635 -0.6859197864173529 0.13374462016042699 -0.04441966068675489 -0.018244358863858667
199.33110367892974 -0.0016444939951805737 0.05077141282090075 -0.6778284112774237 0.16809544737568363 -0.6778284112774233 0.16809544737568338 -0.04536182980862874 -0.022863619939622243
202.3411371237458 -0.0035908941777761383 0.053845819445017984 -0.6680331458824249 0.20196898034479163 -0.6680331458824255 0.20196898034479185 -0.04652469202465351 -0.027344466071082707
205.35117056856186 -0.005115594582668748 0.05719441760024746 -0.6565615034401441 0.2352827072562907 -0.6565615034401443 0.2352827072562903 -0.04789770921050027 -0.03167301951112486
208.36120401337791 -0.0061950643148905304 0.06077061661741051 -0.6434447541702354 0.2679556751746818 -0.6434447541702341 0.2679556751746813 -0.04946943261277553 -0.03583604195354137
211.37123745819395 -0.006810502002928487 0.06452587806237692 -0.6287178361161068 0.29990863288641934 -0.6287178361161073 0.29990863288641934 -0.05122753529329693 -0.039820993270216265
214.38127090301 -0.006948007230480335 0.0684101713401262 -0.612419263967091 0.3310641681267708 -0.6124192639670893 0.33106416812676975 -0.053158848034117634 -0.04361608903771391
217.39130434782606 -0.0065987100426408984 0.07237244546167448 -0.5945910363454289 0.36134683964617126 -0.5945910363454279 0.36134683964617054 -0.05524939869472839 -0.04721035670486687
220.40133779264212 -0.005758856959151848 0.07636111332397982 -0.5752785419335869 0.3906833046244623 -0.5752785419335863 0.39068330462446216 -0.05748445501557162 -0.050593690250033685
223.41137123745816 -0.004429852217983199 0.08032454470780806 -0.5545304647318058 0.4190024419822019 -0.5545304647318062 0.4190024419822025 -0.05984857086477882 -0.05375690317190249
226.42140468227421 -0.0026182532741659825 0.08421156407258368 -0.5323986886447861 0.4462354721693355 -0.5323986886447856 0.4462354721693346 -0.06232563592752072 -0.05669177965092195
229.43143812709027 -0.0003357198907352754 0.08797194912080361 -0.5089382015006234 0.47231607403207576 -0.5089382015006225 0.4723160740320751 -0.06489892883920112 -0.05939112370954619
232.44147157190633 0.0024010835195979463 0.0915569260178832 -0.4842069985055975 0.4971804993683008 -0.48420699850559645 0.4971804993682999 -0.06755117376453235 -0.06184880618852852
235.45150501672242 0.005570632312248802 0.0949196570868582 -0.458265985036153 0.520767685779365 -0.45826598503615407 0.5207676857793659 -0.07026460042388646 -0.06405980934342961
238.46153846153845 0.009146732458006457 0.09801571675175874 -0.4311788785654619 0.5430193684112194 -0.4311788785654624 0.54301936841122 -0.07302100756587535 -0.06602026885043498
241.4715719063545 0.013098757140434347 0.10080355147953104 -0.4030121094177423 0.5638801911500776 -0.40301210941774257 0.5638801911500776 -0.0758018298802767 -0.06772751299370239
244.48160535117057 0.01739192806635137 0.10324491946919578 -0.37383471994005857 0.5832978177962818 -0.37383471994005757 0.5832978177962804 -0.07858820833795382 -0.06918009878784678
247.49163879598663 0.021987640085973315 0.10530530585984582 -0.3437182615803649 0.6012230436850456 -0.3437182615803654 0.6012230436850462 -0.08136106393365511 -0.07037784476928508
250.50167224080266 0.026843827345035765 0.10695430927774285 -0.312736689263469 0.6176099081533728 -0.3127366892634693 0.6176099081533732 -0.0841011747933024 -0.07132186016920379
253.51170568561872 0.03191536880943835 0.10816599561910827 -0.2809662523650655 0.6324158081689293 -0.2809662523650661 0.6324158081689304 -0.0867892565889816 -0.0720145701594288
256.52173913043475 0.03715453061464319 0.10891921507147276 -0.2484853814999355 0.6456016133389454 -0.24848538149993626 0.6456016133389468 -0.0894060461821368 -0.07245973684093696
259.53177257525084 0.04251144229834042 0.10919787851515514 -0.21537457026555978 0.6571317824055284 -0.21537457026555953 0.6571317824055286 -0.09193238838795478 -0.0726624756238174
262.5418060200669 0.04793460357758067 0.10899118962031057 -0.1817162510188312 0.6669744812082823 -0.18171625101883085 0.6669744812082806 -0.09434932572149987 -0.07262926662777629
265.55183946488296 0.05337141793276262 0.10829382916696156 -0.14759466371343383 0.6751017019570965 -0.14759466371343385 0.6751017019570966 -0.09663819094846948 -0.07236796071469627
268.561872909699 0.0587687488635491 0.10710608836849057 -0.11309571679071956 0.681489383507611 -0.11309571679071988 0.6814893835076128 -0.09878070222061605 -0.07188777975002278
271.5719063545151 0.06407349428945264 0.10543394827622411 -0.07830683909998894 0.6861175321710491 -0.07830683909998913 0.6861175321710506 -0.10075906052768394 -0.07119931067891447
274.58193979933105 0.06923317418494801 0.10328910268685554 -0.043316821826906556 0.6889703424201066 -0.04331682182690628 0.6889703424201054 -0.10255604914459965 -0.07031449299703162
277.5919732441472 0.07419652617061695 0.1006889223681042 -0.008215649433608335 0.6900363166755682 -0.008215649433608207 0.6900363166755703 -0.1041551346946952 -0.06924659919567852
280.6020066889632 0.07891410343417982 0.09765635886333597 0.02690568133717701 0.6893083831765369 0.026905681337176923 0.6893083831765369 -0.10554056938758308 -0.06801020776772947
283.61204013377926 0.08333886903516896 0.09421978663438403 0.06195535526719594 0.686784010753529 0.06195535526719598 0.6867840107535328 -0.10669749392456057 -0.0666211683754371
286.6220735785953 0.08742678036220308 0.09041278285417884 0.09684094604829237 0.6824653191414817 0.09684094604829258 0.6824653191414818 -0.10761204049595174 -0.06509655880486638
289.6321070234114 0.09113735727086736 0.08627384476666838 0.13146963788972119 0.6763591832922742 0.13146963788972138 0.6763591832922741 -0.10827143522473359 -0.06345463336524096
292.6421404682274 0.09443422724220729 0.08184604518927777 0.1657484618286612 0.6684773299782801 0.1657484618286616 0.6684773299782822 -0.10866409934036389 -0.06171476243578686
295.6521739130435 0.09728564077641666 0.07717662743972507 0.19958454703651526 0.6588364248235286 0.19958454703651554 0.6588364248235289 -0.10877974829749211 -0.059897362918431646
298.6622073578595 0.09966495018337307 0.07231654171970772 0.23288538719529558 0.6474581477623653 0.23288538719529583 0.647458147762366 -0.10860948798785215 -0.05802381942245077
301.6722408026756 0.10155104496111633 0.06731992577621289 0.2655591217723661 0.6343692548119392 0.2655591217723672 0.6343692548119407 -0.10814590713199117 -0.05611639608713498
304.6822742474916 0.10292873707475214 0.06224353347857557 0.2975148317494578 0.6196016239591703 0.29751483174945786 0.6196016239591702 -0.10738316488265354 -0.054198139040808696
307.69230769230774 0.10378908967058004 0.0571461157853277 0.32866284906631393 0.6031922829103764 0.32866284906631366 0.6031922829103761 -0.10631707262567808 -0.05229276959871221
310.7023411371237 0.10412968309125009 0.05208775941689811 0.35891507872403333 0.5851834164372502 0.35891507872403305 0.5851834164372499 -0.10494516892952219 -0.050424568417695576
313.7123745819398 0.10395481250391869 0.04712918938374741 0.3881853321629247 0.5656223510807291 0.3881853321629253 0.5656223510807301 -0.10326678657306713 -0.04861825095133099
316.72240802675583 0.10327561201908753 0.04233104232822374 0.41638967018996514 0.5445615150488574 0.41638967018996687 0.5445615150488593 -0.1012831105755216 -0.046898834683364865
319.7324414715719 0.1021101008651415 0.03775311840434234 0.4434467533882958 0.5220583712689023 0.4434467533882961 0.5220583712689026 -0.09899722616388305 -0.04529149875858146
322.7424749163879 0.10048314799188351 0.033453620123596955 0.4692781976030005 0.4981753217307337 0.4692781976030018 0.49817532173073475 -0.09641415564450964 -0.04382143677572578
325.75250836120404 0.09842635240165593 0.029488387216736828 0.49380893177158947 0.47297958148852975 0.49380893177159035 0.4729795814885308 -0.09354088319725679 -0.04251370365442542
328.76254180602 0.0959778375416882 0.02591013708087861 0.5169675550629087 0.446543020971851 0.5169675550629073 0.44654302097184967 -0.09038636668459883 -0.041393057633929725
331.77257525083616 0.09318195922497602 0.02276772077831113 0.5386866900135644 0.4189419755933447 0.5386866900135642 0.4189419755933442 -0.08696153566464618 -0.040483798602534704
334.78260869565213 0.09008892776461036 0.020105404808927058 0.5589033281153153 0.39025702202600104 0.5589033281153152 0.3902570220260014 -0.083279274916258 -0.03980960408909329
337.7926421404682 0.08675434628931766 0.017962188975133242 0.5775591641193797 0.36057272095338916 0.5775591641193787 0.3605727209533886 -0.07935439292576496 -0.039393364368234735
340.80267558528425 0.08323866853404177 0.016371170581669203 0.5946009151924092 0.32997732656559065 0.5946009151924097 0.32997732656559087 -0.07520357494716294 -0.039257018234967744
343.81270903010034 0.07960658074327165 0.015358964951554643 0.6099806209917498 0.29856246357350025 0.6099806209917494 0.29856246357350014 -0.07084532042886355 -0.03942139108846529
346.8227424749163 0.07592631365845326 0.014945191786063572 0.6236559207308753 0.26642277303576223 0.6236559207308755 0.26642277303576234 -0.06629986479776047 -0.039906037025526434
349.83277591973246 0.07226889185417301 0.015142036248319224 0.6355903033847092 0.23365552882483684 0.635590303384708 0.2336555288248364 -0.06158908580204067 -0.04072908667825026
352.84280936454843 0.06870732890955283 0.015953892809262515 0.645753327341911 0.20036022708997367 0.6457533273419119 0.20036022708997406 -0.05673639483393865 -0.04190710253527859
355.8528428093646 0.06531577801994987 0.017377098869174323 0.6541208060486468 0.1666381515923354 0.6541208060486475 0.16663815159233522 -0.05176661387802388 -0.04345494345945036
358.86287625418055 0.06216864863889909 0.01939976397114851 0.6606749565046238 0.13259191827843583 0.6606749565046238 0.13259191827843592 -0.04670583895466131 -0.04538564005568729
361.87290969899664 0.05933970056242954 0.02200169907394567 0.6654045078642458 0.09832500290897932 0.6654045078642462 0.09832500290897944 -0.04158129114679501 -0.047710282450900615
364.88294314381267 0.056901127501604254 0.025154448874953883 0.668304767857753 0.06394125595887204 0.6683047678577512 0.06394125595887201 -0.03642115650578687 -0.05043792192326598
367.89297658862876 0.054922642612615036 0.028821428598602594 0.669377645271448 0.0295444093385174 0.6693776452714463 0.029544409338516996 -0.03125441632339809 -0.053575487662746404
370.90301003344484 0.05347057865019422 0.032958165024748465 0.6686316273024647 -0.004762420253617793 0.6686316273024632 -0.004762420253617696 -0.02611066942700349 -0.057127719760716
373.9130434782609 0.052607015368530075 0.03751263986150505 0.6660817112200305 -0.03887722636066958 0.66608171122003 -0.03887722636066924 -0.021019948299104058 -0.06109711931725357
376.9230769230769 0.052388946509713846 0.04242573190593957 0.6617492904083871 -0.07269960110603671 0.6617492904083878 -0.0726996011060368 -0.016012530936045682 -0.06548391632434995
379.933110367893 0.05286749819513056 0.04763175282294024 0.6556619955219974 -0.10613121177504758 0.6556619955219959 -0.10613121177504724 -0.011118750441195535 -0.07028605573671218
382.943143812709 0.054087209779257406 0.05305906984572112 0.647853492135871 -0.13907626067636653 0.6478534921358718 -0.1390762606763666 -0.006368804392214128 -0.07549920188460435
385.9531772575251 0.056085387253758806 0.058630807297299636 0.638363236907623 -0.1714419235169858 0.6383632369076221 -0.17144192351698534 -0.0017925660289801748 -0.08111676112104643
388.96321070234114 0.058891538124547504 0.06426561758414412 0.6272361948680603 -0.20313876181208287 0.6272361948680615 -0.20313876181208326 0.0025806007222103633 -0.08712992233474734
391.9732441471572 0.06252689535323508 0.06987851124993294 0.6145225210096945 -0.23408110522251518 0.6145225210096952 -0.2340811052225154 0.006722020440765725 -0.09352771470647268
394.98327759197326 0.06700403648917011 0.07538173482265054 0.6002772098347157 -0.2641874001591491 0.6002772098347164 -0.26418740015914954 0.010603877776608067 -0.10029708184594979
397.9933110367893 0.07232660255492786 0.08068568455955821 0.5845597169447172 -0.2933805215038826 0.5845597169447168 -0.2933805215038821 0.014199379680628704 -0.10742297122435412
401.0033444816053 0.07848911962439216 0.08569984380283319 0.5674335570951462 -0.3215880448592921 0.5674335570951454 -0.3215880448592914 0.0174829067597137 -0.11488843761873231
404.0133779264214 0.08547692438755507 0.09033373150792878 0.5489658833915638 -0.3487424773386555 0.5489658833915653 -0.3487424773386562 0.020430152406111485 -0.12267475911354171
407.02341137123744 0.09326619336824361 0.09449784959414093 0.5292270524686273 -0.37478144553097864 0.5292270524686268 -0.3747814455309782 0.02301824856186188 -0.13076156406400086
410.03344481605353 0.10182407388716143 0.09810461708315105 0.5082901805649276 -0.399647839906859 0.5082901805649273 -0.39964783990685865 0.025225877204588715 -0.13912696731859298
413.04347826086956 0.11110891337683425 0.1010692795210949 0.486230695389149 -0.4232899155561771 0.4862306953891478 -0.42328991555617596 0.027033366875752085 -0.14774771392497077
416.0535117056856 0.12107058228774512 0.10331078290230017 0.46312588856875536 -0.44566134975359767 0.4631258885687549 -0.4456613497535972 0.028422773810709345 -0.1565993285052179
419.0635451505017 0.1316508846014944 0.10475260220341948 0.4390544732882212 -0.46672125742066317 0.4390544732882212 -0.466721257420663 0.029377947466413812 -0.16565626848207263
422.0735785953177 0.142784048907927 0.10532351566683223 0.41409615146689344 -0.48643416608218504 0.41409615146689416 -0.48643416608218565 0.02988458047194481 -0.17489207936604392
425.0836120401338 0.15439729212341013 0.10495831711154913 0.3883311945069037 -0.5047699523908964 0.38833119450690384 -0.504769952390897 0.029930243244889104 -0.18427955037179816
428.09364548494983 0.16641144723608076 0.1035984597668736 0.3618400412692695 -0.521703742710336 0.36184004126926994 -0.5217037427103366 0.02950440371869789 -0.19379086871800635
