! Created with skrf (http://scikit-rf.org).
# MHz S RI R 376.73031366686166 
!freq ReS11 ImS11 ReS21 ImS21 ReS12 ImS12 ReS22 ImS22
100.0 -0.3099924661155603 0.5528896933788737 -0.05949777774523885 -0.007949421129518968 -0.059497777745238796 -0.007949421129518961 -0.6329463472120677 0.03407731861359348
103.01003344481606 -0.29575019327405294 0.5585216986269974 -0.05825184331201036 -0.003801532933116304 -0.05825184331201037 -0.0038015329331162894 -0.6312790809538726 0.030023101253199708
106.0200668896321 -0.2814882152629236 0.5639638222339257 -0.05678642333721399 0.00010999727799898692 -0.056786423337213995 0.00010999727799899614 -0.6297730907249954 0.02601273379120297
109.03010033444816 -0.2671953328940976 0.5692107590312738 -0.055125636186793156 0.0037830299055831348 -0.055125636186793364 0.003783029905583172 -0.6284172370789809 0.022045640370992037
112.04013377926421 -0.25286220619983035 0.5742568964710824 -0.05329235265554171 0.007216662869291605 -0.05329235265554159 0.007216662869291585 -0.6272016543356865 0.01812079654494917
115.05016722408027 -0.2384811273159653 0.5790964887175503 -0.051308274484670444 0.010411113654051158 -0.051308274484670416 0.010411113654051124 -0.6261176432414084 0.014236858948296474
118.06020066889631 -0.22404580530494148 0.583723789479659 -0.04919400026738825 0.013367621195326387 -0.0491940002673883 0.01336762119532643 -0.6251575688642407 0.010392274581858575
121.07023411371237 -0.20955116438207222 0.5881331489316179 -0.04696907940866501 0.016088362824760293 -0.046969079408664946 0.016088362824760293 -0.6243147637458454 0.006585372811921057
124.08026755852842 -0.1949931567051708 0.592319079379498 -0.044652055139883635 0.018576382327471073 -0.04465205513988361 0.018576382327471056 -0.6235834361748356 0.0028144426105328824
127.09030100334448 -0.18036859066652933 0.5962762938039903 -0.04226049781092925 0.020835525881486464 -0.04226049781092926 0.020835525881486475 -0.622958583369255 -0.0009222029186577504
130.10033444816054 -0.16567497544932505 0.5999997210100517 -0.03981102981809818 0.022870383275229864 -0.03981102981809818 0.022870383275229847 -0.6224359093312338 -0.0046261730701629665
133.11036789297657 -0.15091038245131017 0.6034845008152872 -0.03731934359525728 0.024686232344135965 -0.03731934359525738 0.024686232344136052 -0.6220117471471027 -0.00829895577086405
136.12040133779263 -0.13607332401966943 0.6067259624841225 -0.03480021411186677 0.026288985043311598 -0.03480021411186686 0.02628898504331165 -0.6216829855373076 -0.011941882408873724
139.1304347826087 -0.12116264977197047 0.6097195894407145 -0.032267507295130025 0.027685133988328815 -0.03226750729513012 0.027685133988328902 -0.6214469995019222 -0.015556100333206336
142.14046822742475 -0.10617746059453124 0.6124609731501073 -0.029734185732537503 0.02888169865735831 -0.02973418573253756 0.028881698657358332 -0.621301584952103 -0.019142552240609737
145.1505016722408 -0.09111704021089156 0.6149457589275105 -0.02721231292176864 0.029886170759877245 -0.02721231292176854 0.029886170759877144 -0.6212448972599816 -0.02270196176897925
148.16053511705684 -0.07598080400231345 0.6171695863062271 -0.024713057222777127 0.030706458543840503 -0.0247130572227771 0.030706458543840513 -0.6212753936956691 -0.02623482469027675
151.1705685618729 -0.0607682645445104 0.6191280264554212 -0.02224669653682949 0.03135083003735323 -0.022246696536829504 0.03135083003735326 -0.6213917797478846 -0.02974140514657422
154.18060200668896 -0.045479013106614785 0.6208165189824808 -0.019822624593987852 0.0318278554047739 -0.019822624593987943 0.03182785540477402 -0.6215929593430248 -0.03322173640641024
157.19063545150502 -0.03011271614722423 0.6222303102769917 -0.017449359578557113 0.0321463487429784 -0.017449359578557148 0.032146348742978455 -0.621877988985827 -0.036675625640314645
160.20066889632105 -0.01466912564544709 0.6233643953528339 -0.015134555665783596 0.032315309753238014 -0.015134555665783625 0.03231530975323805 -0.6222460358435503 -0.04010266222825523
163.2107023411371 0.0008518980707054868 0.6242134649224982 -0.012885017886848465 0.03234386580011935 -0.012885017886848395 0.032343865800119276 -0.622696339785557 -0.04350222912155009
166.22073578595317 0.016450352484527836 0.6247718591962479 -0.010706720586978078 0.03224121491354348 -0.010706720586978106 0.03224121491354351 -0.6232281793726184 -0.046873516790327516
169.23076923076923 0.032126049641473975 0.6250335296426274 -0.008604829596966155 0.03201657030653432 -0.00860482959696619 0.032016570306534375 -0.6238408417667004 -0.05021553929714342
172.24080267558526 0.04787856517328848 0.624992009681521 -0.006583728104807861 0.0316791069724737 -0.006583728104807869 0.03167910697247375 -0.6245335965040392 -0.053527152049493376
175.25083612040132 0.06370718132122216 0.6246403950126849 -0.004647046094173473 0.031237910895393566 -0.004647046094173468 0.031237910895393534 -0.6253056730437079 -0.05680707079979662
178.26086956521738 0.07961082568969913 0.6239713340177914 -0.002797693112189654 0.03070193135867295 -0.002797693112189653 0.030701931358672926 -0.6261562419722941 -0.060053891481503724
181.27090301003344 0.09558800743087681 0.622977028418741 -0.0010378940418813408 0.03007993677532826 -0.0010378940418813622 0.030079936775328293 -0.627084399714226 -0.06326611049447617
184.2809364548495 0.11163675249573954 0.621649244135111 0.0006307725145586724 0.029380474390669244 0.0006307725145586674 0.029380474390669205 -0.6280891565681799 -0.06644214508143052
187.29096989966553 0.12775453949219256 0.619979332064088 0.002207333686640545 0.028611834129160005 0.0022073336866405657 0.028611834129160008 -0.6291694278638634 -0.06958035346959078
190.3010033444816 0.14393823756969318 0.6179582583110914 0.0036913800990754585 0.02778201677530144 0.0036913800990754316 0.02778201677530136 -0.6303240280113288 -0.07267905448697647
193.31103678929765 0.1601840476081561 0.6155766432315899 0.0050830224432862284 0.02689870659637119 0.005083022443286235 0.026898706596371252 -0.6315516671973717 -0.0757365464001642
196.3210702341137 0.1764874478317037 0.6128248085061716 0.006382847353983776 0.025969248435634543 0.006382847353983787 0.025969248435634546 -0.632850950470941 -0.07875112475895513
199.33110367892974 0.19284314480053885 0.6096928313625264 0.007591873076038695 0.025000629230454197 0.007591873076038663 0.02500062923045411 -0.6342203789518589 -0.0817210990722456
202.3411371237458 0.20924503056215987 0.606170604979487 0.008711505383533276 0.02399946384236231 0.008711505383533272 0.023999463842362324 -0.6356583528946398 -0.08464480817764196
205.35117056856186 0.2256861465710087 0.6022479040584198 0.009743494180096325 0.022971985026940988 0.0097434941800963 0.022971985026940946 -0.6371631763412952 -0.08752063420418037
208.36120401337791 0.24215865481787718 0.597914454524261 0.01068989116952698 0.021924037321137367 0.010689891169526957 0.021924037321137346 -0.6387330631035124 -0.09034701506222204
211.37123745819395 0.2586538164506177 0.5931600063198136 0.011553008940381004 0.020861074584851223 0.011553008940380999 0.020861074584851223 -0.6403661438248536 -0.09312245542659793
214.38127090301 0.27516197801892317 0.5879744082796869 0.012335381759571199 0.019788160902319555 0.012335381759571247 0.019788160902319617 -0.6420604738871067 -0.09584553620799657
217.39130434782606 0.2916725653404981 0.5823476841112695 0.0130397283199039 0.01870997452672074 0.013039728319903902 0.018709974526720734 -0.6438140419409705 -0.09851492253306653
220.40133779264212 0.3081740848653993 0.576270108566096 0.013668916636408445 0.017630814537984055 0.01366891663640844 0.017630814537984044 -0.6456247788592511 -0.10112937027565054
223.41137123745816 0.32465413231064977 0.5697322829526219 0.014225931237640415 0.01655460987829331 0.014225931237640387 0.016554609878293283 -0.6474905669300594 -0.10368773119987527
226.42140468227421 0.3410994082488198 0.5627252092176149 0.014713842751948675 0.015484930431325837 0.014713842751948696 0.015484930431325827 -0.649409249127563 -0.10618895679061169
229.43143812709027 0.3574957402619291 0.5552403619051797 0.015135779945828822 0.01442499981891646 0.015135779945828837 0.014424999818916468 -0.6513786383181082 -0.10863210085820357
232.44147157190633 0.37382811121522763 0.5472697573871729 0.015494904232558265 0.013377709601575145 0.015494904232558258 0.013377709601575152 -0.6533965262795542 -0.11101632101259527
235.45150501672242 0.3900806931632341 0.5388060198441884 0.015794386634715923 0.012345634586110554 0.015794386634715944 0.01234563458611057 -0.6554606924310772 -0.11334087910731118
238.46153846153845 0.4062368863716797 0.5298424435603302 0.016037387154143826 0.01133104896357579 0.01603738715414386 0.011331048963575821 -0.657568912189139 -0.1156051407565046
241.4715719063545 0.4222793629223993 0.5203730511760676 0.016227036477451315 0.010335943022946154 0.016227036477451315 0.010335943022946168 -0.6597189648825807 -0.1178085740287765
244.48160535117057 0.43819011436229377 0.5103926476203053 0.016366419924202753 0.009362040209554869 0.016366419924202746 0.009362040209554865 -0.6619086411757128 -0.11995074742004137
247.49163879598663 0.45395050286075106 0.49989686951439616 0.01645856352827413 0.008410814321631032 0.016458563528274118 0.008410814321631013 -0.6641357499626716 -0.12203132720470489
250.50167224080266 0.4695413153509663 0.48888222990652663 0.01650642213021678 0.00748350666268251 0.016506422130216823 0.007483506662682537 -0.6663981247092127 -0.12405007426010806
253.51170568561872 0.48494282014792955 0.47734615825433163 0.016512869349503467 0.006581142991429644 0.016512869349503453 0.006581142991429636 -0.6686936292294233 -0.12600684045391564
256.52173913043475 0.5001348255582536 0.46528703562650026 0.01648068929986228 0.00570455013409991 0.016480689299862242 0.005704550134099901 -0.6710201628946584 -0.1279015646781027
259.53177257525084 0.5150967400231526 0.4527042251405875 0.01641256990814412 0.004854372145818224 0.016412569908144138 0.004854372145818236 -0.6733756652803083 -0.12973426860672135
262.5418060200669 0.5298076333647898 0.4395980976943557 0.01631109769690791 0.004031085928322227 0.016311097696907917 0.004031085928322234 -0.6757581202630033 -0.13150505224784148
265.55183946488296 0.544246298736816 0.42597005308203784 0.01617875389276559 0.0032350162301399516 0.0161787538927656 0.0032350162301399556 -0.6781655595864745 -0.13321408935319648
268.561872909699 0.558391314911481 0.41182253661530177 0.01601791172613154 0.0024663499725814846 0.01601791172613154 0.0024663499725814824 -0.6805960659188107 -0.13486162274224786
271.5719063545151 0.572221108567452 0.39715905139180685 0.01583083479301549 0.0017251498603797675 0.015830834793015492 0.00172514986037978 -0.6830477754272634 -0.13644795959071748
274.58193979933105 0.5857140162738727 0.38198416637260124 0.015619676355581646 0.0010113672495656852 0.015619676355581634 0.0010113672495656782 -0.6855188798992367 -0.13797346672725788
277.5919732441472 0.5988483458967904 0.3663035204436059 0.015386479465069311 0.0003248542572256182 0.015386479465069271 0.0003248542572256198 -0.6880076284397558 -0.139438565975858
280.6020066889632 0.6116024371834401 0.3501238226466633 0.015133177798097863 -0.0003346248917673615 0.015133177798097888 -0.0003346248917673574 -0.6905123287766729 -0.14084372957591124
283.61204013377926 0.6239547213078391 0.33345284877245646 0.014861597105132188 -0.0009673832770448585 0.014861597105132187 -0.0009673832770448562 -0.6930313482051778 -0.14218947570662183
286.6220735785953 0.6358837791873984 0.31629943451161013 0.014573457177785307 -0.0015738014425586181 0.01457345717778527 -0.0015738014425586138 -0.6955631142030669 -0.14347636413759363
289.6321070234114 0.6473683984047973 0.29867346536174755 0.0142703742495301 -0.0021543182862364943 0.014270374249530112 -0.0021543182862364973 -0.6981061147476013 -0.14470499202306925
292.6421404682274 0.658387628592041 0.2805858634877657 0.013953863752150342 -0.002709422656791212 0.013953863752150374 -0.0027094226567912177 -0.7006588983639139 -0.14587598985334646
295.6521739130435 0.6689208351544317 0.26204857173028473 0.013625343357790778 -0.0032396456310574894 0.013625343357790788 -0.0032396456310574955 -0.7032200739337299 -0.14699001757338626
298.6622073578595 0.6789477512312347 0.24307453495364195 0.013286136243678923 -0.003745553442235638 0.013286136243678921 -0.003745553442235642 -0.7057883102918522 -0.14804776087551044
301.6722408026756 0.6884485278069878 0.22367767892002086 0.012937474523444044 -0.004227741027253592 0.012937474523444044 -0.004227741027253583 -0.7083623356362995 -0.1490499276703734
304.6822742474916 0.697403781902965 0.20387288687080535 0.012580502795395266 -0.004686826160009539 0.012580502795395255 -0.004686826160009535 -0.7109409367764642 -0.1499972447380236
307.69230769230774 0.7057946427922009 0.18367597399003519 0.01221628176413074 -0.005123444136426787 0.012216281764130726 -0.00512344413642678 -0.7135229582419769 -0.1508904545588498
310.7023411371237 0.7136027961938817 0.1631036599182904 0.01184579189740927 -0.005538242976940783 0.011845791897409263 -0.005538242976940782 -0.7161073012733448 -0.15173031232247083
313.7123745819398 0.7208105264138976 0.14217353947843758 0.011469937085328128 -0.0059318791121665245 0.011469937085328124 -0.005931879112166518 -0.7186929227137485 -0.15251758311118468
316.72240802675583 0.7274007564080801 0.12090405176774952 0.011089548273517717 -0.006305013517980021 0.011089548273517722 -0.006305013517980029 -0.7212788338198367 -0.1532530392533933
319.7324414715719 0.7333570857531401 0.09931444776384696 0.010705387046299619 -0.006658308267023016 0.010705387046299615 -0.006658308267023012 -0.7238640990077447 -0.1539374578414317
322.7424749163879 0.7386638265178165 0.07742475658505615 0.010318149139572156 -0.006992423464644458 0.010318149139572168 -0.006992423464644473 -0.7264478345491161 -0.15457161840744682
325.75250836120404 0.7433060370332001 0.055255750538942744 0.0099284678666128 -0.00730801453847299 0.009928467866612816 -0.007308014538472998 -0.7290292072304693 -0.1551563007503598
328.76254180602 0.7472695535668686 0.0328289090862352 0.009536917443033385 -0.007605729852120006 0.009536917443033404 -0.0076057298521200216 -0.7316074329879332 -0.1556922829064643
331.77257525083616 0.7505410199102824 0.010166381840983979 0.009144016199826945 -0.007886208614912198 0.009144016199826962 -0.007886208614912208 -0.7341817755281173 -0.15618033925588914
334.78260869565213 0.753107914893112 -0.012709049278232742 0.008750229675818797 -0.008150079061000633 0.008750229675818793 -0.008150079061000626 -0.7367515449447385 -0.1566212387569087
337.7926421404682 0.7549585778417184 -0.035774008637096094 0.008355973582910103 -0.008397956872669149 0.008355973582910075 -0.00839795687266913 -0.7393160963395335 -0.157015743299932
340.80267558528425 0.7560822320020706 -0.05900456611076346 0.007961616639304532 -0.008630443824143361 0.007961616639304534 -0.00863044382414337 -0.7418748284550324 -0.15736460617295633
343.81270903010034 0.7564690059499826 -0.08237627684722179 0.0075674832674572185 -0.00884812662365775 0.007567483267457225 -0.00884812662365775 -0.7444271823258369 -0.1576685706302298
346.8227424749163 0.7561099530137407 -0.10586422147527638 0.007173856154807453 -0.009051575932962515 0.007173856154807451 -0.009051575932962517 -0.7469726399542822 -0.15792836855593131
349.83277591973246 0.754997068736049 -0.12944304666832288 0.006780978676472812 -0.00924134554482647 0.006780978676472811 -0.009241345544826468 -0.7495107230155561 -0.1581447192147184
352.84280936454843 0.75312330640378 -0.15308700597925498 0.006389057180012871 -0.00941797170041034 0.006389057180012866 -0.009417971700410333 -0.7520409915967691 -0.1583183280811253
355.8528428093646 0.7504825906753185 -0.1767700008659412 0.0059982631331327385 -0.009581972529633545 0.005998263133132737 -0.009581972529633543 -0.7545630429738164 -0.15844988573986857
358.86287625418055 0.7470698293363829 -0.20046562183034816 0.005608735135813393 -0.009733847598837672 0.005608735135813381 -0.009733847598837648 -0.7570765104293957 -0.15854006684926572
361.87290969899664 0.7428809232161062 -0.22414718959792412 0.005220580798835941 -0.00987407755115018 0.005220580798835931 -0.009874077551150169 -0.7595810621150635 -0.1585895291600752
364.88294314381267 0.7379127742959405 -0.24778779626702302 0.004833878491030595 -0.010003123825974557 0.004833878491030592 -0.010003123825974543 -0.7620763999598368 -0.15859891258219583
367.89297658862876 0.7321632920445313 -0.2713603463612008 0.004448678957840297 -0.010121428444970234 0.0044486789578402925 -0.01012142844497023 -0.7645622586274876 -0.1585688382917368
370.90301003344484 0.725631398012272 -0.2948375977199048 0.0040650068139538465 -0.01022941385274516 0.004065006813953847 -0.01022941385274517 -0.7670384045244039 -0.15849990787109564
373.9130434782609 0.7183170287196547 -0.31819220216572447 0.0036828619128449033 -0.01032748280125127 0.003682861912844907 -0.010327482801251292 -0.7695046348596407 -0.15839270247469678
376.9230769230769 0.7102211368738843 -0.3413967458886784 0.0033022205960646224 -0.010416018267561932 0.003302220596064624 -0.010416018267561946 -0.771960776758603 -0.15824778201310383
379.933110367893 0.7013456909485265 -0.36442378949022347 0.0029230368250772578 -0.010495383395310798 0.002923036825077258 -0.010495383395310814 -0.7744066864316277 -0.15806568434820986
382.943143812709 0.6916936731612008 -0.387245907631667 0.0025452431983150545 -0.010565921450585722 0.002545243198315057 -0.010565921450585726 -0.7768422483986512 -0.15784692449216653
385.9531772575251 0.6812690758845075 -0.40983572823351955 0.002168751855961265 -0.01062795578350071 0.0021687518559612698 -0.010627955783500728 -0.779267374771035 -0.15759199380263358
388.96321070234114 0.6700768965255679 -0.4321659711739866 0.0017934552747552789 -0.010681789787009177 0.0017934552747552802 -0.010681789787009172 -0.7816820045916166 -0.15730135916680396
391.9732441471572 0.6581231309096438 -0.4542094864363463 0.0014192269548563591 -0.010727706844773302 0.0014192269548563583 -0.01072770684477331 -0.7840861032340183 -0.15697546216646088
394.98327759197326 0.645414765203451 -0.4759392916563075 0.0010459220005030565 -0.010765970260066066 0.0010459220005030602 -0.010765970260066074 -0.7864796618622912 -0.1566147182161031
397.9933110367893 0.6319597664138099 -0.4973286090217088 0.0006733775958691605 -0.010796823157747288 0.0006733775958691563 -0.010796823157747291 -0.7888626969520091 -0.1562195156658354
401.0033444816053 0.6177670714973535 -0.518350901477966 0.0003014133771426477 -0.010820488351324348 0.00030141337714265326 -0.01082048835132436 -0.7912352498740192 -0.15579021486035413
404.0133779264214 0.6028465751170358 -0.5389799081936185 -7.016829855518563e-05 -0.010837168166973627 -7.016829855518715e-05 -0.0108371681669736 -0.7935973865421757 -0.15532714714488913
407.02341137123744 0.5872091160811852 -0.5591896792411031 -0.00044158218723971336 -0.010847044216152374 -0.0004415821872397145 -0.010847044216152416 -0.795949197126508 -0.15483061380838692
410.03344481605353 0.5708664625008291 -0.5789546094484921 -0.0008130600954337826 -0.010850277108070515 -0.0008130600954337814 -0.01085027710807055 -0.7982907958334553 -0.15430088495357044
413.04347826086956 0.5538312957009738 -0.5982494713783855 -0.001184850921672276 -0.010847006092798322 -0.0011848509216722748 -0.01084700609279829 -0.8006223207549996 -0.15373819828271973
416.0535117056856 0.5361171929214597 -0.6170494473904027 -0.001557220803535196 -0.010837348625157658 -0.0015572208035351967 -0.010837348625157672 -0.8029439337887475 -0.1531427577870995
419.0635451505017 0.5177386088429067 -0.6353301607437808 -0.0019304533722084075 -0.010821399838757278 -0.0019304533722084027 -0.010821399838757278 -0.8052558206312818 -0.15251473232690604
422.0735785953177 0.498710855973137 -0.653067705696452 -0.0023048501172224394 -0.010799231918572282 -0.002304850117222435 -0.010799231918572292 -0.8075581908473605 -0.15185425408735032
