! Created with skrf (http://scikit-rf.org).
# MHz S RI R 376.73031366686166 
!freq ReS11 ImS11 ReS21 ImS21 ReS12 ImS12 ReS22 ImS22
100.0 -0.01353969827091367 0.2742722153922341 -0.17472722973234417 -0.49965052855353975 -0.1747272297323446 -0.49965052855354025 -0.2389248898913904 0.1353642070704755
103.01003344481606 -0.003950995592870293 0.2658059561490567 -0.20222487285628993 -0.4876990146070045 -0.20222487285629007 -0.48769901460700454 -0.23074366764933638 0.13200672910962488
106.0200668896321 0.004633187284678486 0.25699858581511187 -0.22888868104006518 -0.47423494108417025 -0.22888868104006543 -0.4742349410841707 -0.22277601974053463 0.1282208429388415
109.03010033444816 0.012205155945431923 0.2479475889852673 -0.2546361086318841 -0.4593185683967705 -0.2546361086318842 -0.45931856839677093 -0.21504676551261268 0.12402363225540014
112.04013377926421 0.018766421263801014 0.2387498117974431 -0.2793892118372629 -0.4430145684810285 -0.27938921183726273 -0.4430145684810278 -0.2075794465630682 0.11943376643535666
115.05016722408027 0.024327545689229263 0.22950058194962147 -0.303074874849942 -0.4253916448034745 -0.3030748748499423 -0.4253916448034748 -0.20039621746667655 0.11447140524831856
118.06020066889631 0.028907903172546837 0.22029285121875875 -0.325625001354683 -0.40652214159696165 -0.325625001354682 -0.40652214159696076 -0.193517744305216 0.10915809545308343
121.07023411371237 0.03253535578845676 0.211216369294004 -0.34697667095521817 -0.3864816458452002 -0.34697667095521795 -0.3864816458451998 -0.18696311166932553 0.1035166600550178
124.08026755852842 0.03524585106122266 0.20235689730197015 -0.3670722604781954 -0.3653485855437474 -0.3670722604781955 -0.36534858554374755 -0.18074973870390887 0.09757108107005234
127.09030100334448 0.03708294488516212 0.19379546885542587 -0.3858595304991221 -0.3432038277255219 -0.3858595304991221 -0.3432038277255224 -0.17489330466296887 0.09134637668958903
130.10033444816054 0.03809725573341495 0.18560770581068453 -0.4032916778222012 -0.32013027965051916 -0.4032916778222016 -0.3201302796505196 -0.16940768432943284 0.08486847377478882
133.11036789297657 0.03834585655542458 0.17786319518692106 -0.41932735501620033 -0.2962124964245674 -0.4193273550162 -0.29621249642456754 -0.16430489354281788 0.07816407662701085
136.12040133779263 0.037891611366072955 0.17062493289826275 -0.4339306584570807 -0.2715362981335538 -0.43393065845708095 -0.2715362981335542 -0.1595950449648818 0.07126053298363363
139.1304347826087 0.03680246402047444 0.16394883909313096 -0.4470710866499024 -0.24618839936133372 -0.44707108664990264 -0.24618839936133377 -0.15528631410305935 0.06418569817529228
142.14046822742475 0.03515068704410386 0.1578833490022623 -0.458723470892406 -0.2202560537059431 -0.45872347089240556 -0.220256053705943 -0.15138491550584682 0.0569677983524937
145.1505016722408 0.033012098646776566 0.15246908228419287 -0.46886788059745466 -0.19382671562463882 -0.4688678805974543 -0.19382671562463882 -0.14789508894544118 0.04963529364745051
148.16053511705684 0.030465256192680507 0.14773859294167402 -0.4774895058075908 -0.1669877216290243 -0.4774895058075919 -0.16698772162902442 -0.1448190953128524 0.04221674208223922
151.1705685618729 0.027590634431197747 0.14371620098038385 -0.48457851961070275 -0.13982599252258096 -0.4845785196107031 -0.13982599252258146 -0.14215722187106766 0.0347406649684491
154.18060200668896 0.02446979672114652 0.1404179061072025 -0.4901299232996413 -0.11242775802986145 -0.4901299232996421 -0.11242775802986155 -0.13990779644412674 0.02723541446818914
157.19063545150502 0.0211845673128441 0.1378513829322442 -0.4941433772103543 -0.08487830481485335 -0.49414337721035545 -0.08487830481485345 -0.13806721006530617 0.019729043903525617
160.20066889632105 0.017816212498344253 0.13601605635805902 -0.49662302022287946 -0.05726174853085083 -0.4966230202228788 -0.057261748530850844 -0.13662994756692476 0.012249181313223084
163.2107023411371 0.014444638111864416 0.13490325511991474 -0.4975772809185869 -0.029660830190402686 -0.49757728091858755 -0.029660830190402575 -0.1355886255680801 0.0048229066640818885
166.22073578595317 0.011147610472472258 0.13449644078975675 -0.49701868335662047 -0.002156736796102214 -0.4970186833566191 -0.0021567367961021966 -0.13493403730527379 -0.0025233669684552595
169.23076923076923 0.008000007422459238 0.13477150897761025 -0.49496365036508316 0.02517105416507088 -0.49496365036508355 0.025171054165070976 -0.13465520375425233 -0.00976400802756136
172.24080267558526 0.005073105640915204 0.135697158960158 -0.4914323071399032 0.052244907085844935 -0.4914323071399045 0.05224490708584485 -0.1347394305093934 -0.016874276775808522
175.25083612040132 0.0024339099156096555 0.13723532753658646 -0.48644828780953064 0.0789891384918149 -0.48644828780953114 0.07898913849181473 -0.1351723699188741 -0.02383043121864517
178.26086956521738 0.00014452954984778277 0.13934168255427426 -0.4800385474591051 0.10533010650445981 -0.48003854745910424 0.10533010650445948 -0.13593808801903082 -0.03060982867605111
181.27090301003344 -0.0017383934241469445 0.14196617125709804 -0.47223318191593355 0.13119628110469078 -0.4722331819159331 0.13119628110469042 -0.13701913586879744 -0.0371910230951617
184.2809364548495 -0.0031642000475001764 0.14505361838076059 -0.4630652573817548 0.1565182970358684 -0.4630652573817541 0.15651829703586842 -0.1383966249536111 -0.04355385825321767
187.29096989966553 -0.004088670548460238 0.14854436874475696 -0.4525706517583462 0.1812289914107305 -0.4525706517583464 0.1812289914107306 -0.14005030640635852 -0.049679557044293415
190.3010033444816 -0.004474417510393014 0.15237496896040004 -0.4407879092534585 0.20526342828879057 -0.440787909253458 0.20526342828879013 -0.14195865387934828 -0.0555508070733767
193.31103678929765 -0.004291213251870929 0.15647888277831784 -0.42775810957550536 0.22855891266863257 -0.4277581095755067 0.22855891266863326 -0.14409894999398576 -0.061151842796063144
196.3210702341137 -0.003516248957459611 0.1607872345263463 -0.4135247527290072 0.25105499649284535 -0.413524752729007 0.25105499649284485 -0.14644737639202884 -0.06646852444016291
199.33110367892974 -0.002134323443583108 0.16522957502832142 -0.3981336601092578 0.2726934793908709 -0.39813366010925827 0.27269347939087113 -0.14897910751178292 -0.07148841392557384
202.3411371237458 -0.00013795975651570425 0.16973466433474294 -0.3816328922646971 0.29341840698623967 -0.38163289226469543 0.2934184069862384 -0.1516684083120108 -0.07620084796000162
205.35117056856186 0.002472551916565202 0.17423126552650986 -0.3640726833491785 0.3131760696677447 -0.36407268334917814 0.313176069667745 -0.15448873626305087 -0.08059700842956177
208.36120401337791 0.005689186280935621 0.17864894376282497 -0.3455053919239116 0.3319150047672271 -0.34550539192391144 0.33191500476722663 -0.15741284801583683 -0.08466999012433685
211.37123745819395 0.009496290920971928 0.1829188646246141 -0.3259854673904431 0.34958600509719134 -0.32598546739044376 0.349586005097192 -0.1604129112419556 -0.08841486573927498
214.38127090301 0.01387077100213635 0.18697458564810382 -0.3055694309420013 0.36614213677608537 -0.30556943094200084 0.36614213677608487 -0.16346062220816585 -0.09182874797030109
217.39130434782606 0.018782351191544033 0.19075283474388335 -0.28431586951160603 0.38153876920353197 -0.2843158695116059 0.3815387692035317 -0.16652732970307527 -0.09491084838453973
220.40133779264212 0.02419391501399648 0.19419426895214165 -0.26228544077293436 0.39573361993722767 -0.26228544077293514 0.39573361993722883 -0.16958416596792136 -0.09766253258300074
223.41137123745816 0.030061921528991065 0.1972442066949879 -0.2395408868165499 0.4086868170618428 -0.2395408868165501 0.4086868170618437 -0.17260218529313553 -0.10008737099546797
226.42140468227421 0.03633689881926805 0.19985332635576541 -0.21614705368330156 0.4203609814216018 -0.21614705368330148 0.4203609814216017 -0.1755525109230323 -0.1021911844528893
229.43143812709027 0.04296401330337152 0.20197832365126642 -0.19217091349385404 0.4307213308054528 -0.1921709134938537 0.43072133080545155 -0.17840649085783508 -0.10398208347547797
232.44147157190633 0.04988371330400759 0.20358251987856896 -0.16768158547562273 0.4397358078196987 -0.1676815854756231 0.4397358078196997 -0.1811358630503935 -0.10547049999925717
235.45150501672242 0.057032444601956556 0.2046364127320533 -0.1427503517653059 0.4473752327507291 -0.14275035176530632 0.4473752327507304 -0.18371293035992478 -0.10666921004529767
238.46153846153845 0.064343434865205 0.2051181610216709 -0.11745066346869999 0.4536134822035667 -0.11745066346869995 0.4536134822035655 -0.18611074544264347 -0.1075933456211323
241.4715719063545 0.07174754285099494 0.2050139943101875 -0.09185813210425728 0.45842769369579783 -0.09185813210425726 0.4584276936957986 -0.18830330552565802 -0.1082603939411068
244.48160535117057 0.07917416712595121 0.20431853826011653 -0.06605050126020126 0.46179849568733206 -0.0660505012602013 0.4617984956873317 -0.19026575672375856 -0.10869018187110628
247.49163879598663 0.08655220773339695 0.203035046380866 -0.040107593077137765 0.46371026173486213 -0.0401075930771378 0.4637102617348617 -0.19197460721754817 -0.10890484335452465
250.50167224080266 0.09381107276304868 0.2011755289383617 -0.014111224051326796 0.4641513865789794 -0.014111224051326999 0.46415138657898003 -0.19340794821693227 -0.10892876747260136
253.51170568561872 0.10088172016158531 0.19876077008146797 0.011854915337527415 0.4631145810100379 0.01185491533752739 0.4631145810100385 -0.19454568118961707 -0.1087885247468981
256.52173913043475 0.10769772339014483 0.19582022480186767 0.03770542251077884 0.4605971813299915 0.03770542251077885 0.4605971813299918 -0.19536974934642187 -0.1085127693185933
259.53177257525084 0.1141963477263882 0.1923917882256656 0.0633533911892786 0.45660146815195024 0.0633533911892785 0.456601468151949 -0.19586437085351932 -0.10813211475260537
262.5418060200669 0.12031962217866826 0.18852143098099824 0.08871067077295222 0.45113498818436604 0.08871067077295244 0.45113498818436687 -0.19601627069979974 -0.10767898142759154
265.55183946488296 0.1260153901965655 0.18426269603391116 0.11368818041498323 0.44421087156799444 0.11368818041498342 0.4442108715679954 -0.1958149076027611 -0.10718741379751758
268.561872909699 0.13123832070867586 0.17967605446063892 0.13819628051650507 0.4358481363130649 0.13819628051650487 0.43584813631306396 -0.19525269181011304 -0.10669286625581234
271.5719063545151 0.13595085959062864 0.1748281201380812 0.16214520313947828 0.42607197047070766 0.16214520313947875 0.42607197047070844 -0.1943251891719212 -0.10623195690442234
274.58193979933105 0.14012410056945807 0.16979072627519176 0.18544554137019423 0.41491398192176426 0.18544554137019448 0.4149139819217644 -0.19303130644779684 -0.10584218922770548
277.5919732441472 0.1437385539162062 0.16463987004099276 0.20800879597901184 0.4024124051352732 0.20800879597901212 0.4024124051352732 -0.1913734525060214 -0.10556164248893891
280.6020066889632 0.14678479117865467 0.1594545352069412 0.2297479758436264 0.3886122539980859 0.22974797584362644 0.3886122539980862 -0.1893576698979716 -0.10542863259206918
283.61204013377926 0.14926394476527138 0.1543154066192633 0.25057824657880085 0.37356540990216086 0.2505782465788004 0.3735654099021603 -0.18699373128218427 -0.10548134616189145
286.6220735785953 0.15118804250020895 0.14930349432698617 0.2704176197063394 0.35733063474729293 0.2704176197063392 0.35733063474729265 -0.1842951953556498 -0.10575745166235952
289.6321070234114 0.15258015939400532 0.1444986891614169 0.28918767258193534 0.33997349941270794 0.28918767258193506 0.33997349941270744 -0.1812794173474996 -0.10629369245735497
292.6421404682274 0.1534743718500849 0.13997827531610751 0.30681428726023047 0.3215662195939567 0.3068142872602303 0.3215662195939563 -0.17796750975689263 -0.10712546777578322
295.6521739130435 0.15391550334711024 0.13581542881890707 0.32322839462617403 0.30218739269437167 0.32322839462617425 0.30218739269437195 -0.1743842498770783 -0.10828640852233742
298.6622073578595 0.1539586552487776 0.13207773351809382 0.33836670855438605 0.28192163168176354 0.33836670855438583 0.2819216316817633 -0.17055793173393444 -0.10980795572239352
301.6722408026756 0.15366852169176676 0.12882574812582026 0.3521724336834364 0.2608590944235652 0.35217243368343637 0.26085909442356514 -0.16652016135871645 -0.1117189500495653
304.6822742474916 0.1531184933335093 0.12611165879556077 0.36459592970476273 0.23909490992281737 0.36459592970476323 0.2390949099228179 -0.16230559577652204 -0.11404524130589615
307.69230769230774 0.15238956089988787 0.12397805150999822 0.3755953149478749 0.2167285059928022 0.37559531494787524 0.2167285059928023 -0.15795162767527543 -0.11680932686308734
310.7023411371237 0.1515690357135553 0.12245683712256294 0.3851369925526552 0.1938628461072686 0.3851369925526562 0.19386284610726914 -0.15349801936426155 -0.12003002789488851
313.7123745819398 0.15074911043150074 0.12156835918917627 0.3931960836855591 0.17060358630636463 0.393196083685559 0.17060358630636455 -0.14898649126605923 -0.1237222117166755
316.72240802675583 0.15002528878725302 0.12132071077362111 0.3997567540741417 0.14705816597727686 0.3997567540741415 0.14705816597727708 -0.14446027173530487 -0.12789656769623323
319.7324414715719 0.14949471793437347 0.12170928130933706 0.40481242256222244 0.12333484891440533 0.4048124225622237 0.12333484891440576 -0.1399636163850235 -0.13255944302666345
322.7424749163879 0.1492544607632309 0.12271654852210989 0.4083658433469994 0.09954173315843215 0.40836584334700005 0.09954173315843219 -0.13554130625328303 -0.13771274319414256
325.75250836120404 0.1493997480949839 0.12431212359612481 0.41042905693705484 0.07578574959825372 0.4104290569370546 0.0757857495982536 -0.13123813499585651 -0.14335390028399014
328.76254180602 0.15002225178777462 0.1264530504861741 0.41102320852491325 0.05217167010523884 0.41102320852491425 0.05217167010523903 -0.12709839579463866 -0.1494759104175741
331.77257525083616 0.15120841943582042 0.12908435286226697 0.41017823623854116 0.028801146002440374 0.41017823623854155 0.02880114600244033 -0.12316537879478417 -0.156067439680692
334.78260869565213 0.15303790949894452 0.1321398149548949 0.4079324354516191 0.005771796940225271 0.40793243545161967 0.005771796940225196 -0.1194808896147098 -0.16311299597824333
337.7926421404682 0.1555821624469358 0.13554297587740682 0.4043319088229632 -0.016823631215659374 0.4043319088229632 -0.016823631215659586 -0.11608479882252043 -0.170593162417791
340.80267558528425 0.15890313899673641 0.13920831113468246 0.39942991484388235 -0.03889802300624956 0.39942991484388213 -0.038898023006249616 -0.1130146312716598 -0.17848488616831806
343.81270903010034 0.16305225098424447 0.1430425702340034 0.3932861302645554 -0.0603705507201374 0.3932861302645567 -0.060370550720137736 -0.11030520288794518 -0.18676181533179653
346.8227424749163 0.16806950412100607 0.14694623577986826 0.3859658437436218 -0.08116722176925296 0.38596584374362314 -0.08116722176925316 -0.10798831096535116 -0.19539467526062224
349.83277591973246 0.17398286514520062 0.15081506727039168 0.37753909935348484 -0.10122130879385205 0.3775390993534847 -0.10122130879385202 -0.10609248233488221 -0.20435167499173723
352.84280936454843 0.1808078590028358 0.1545416920513346 0.36807980915084954 -0.12047365867757069 0.36807980915084965 -0.12047365867757069 -0.10464278200113734 -0.21359893406649136
355.8528428093646 0.18854739499517448 0.1580172064811391 0.35766485390116026 -0.13887288009160312 0.35766485390116043 -0.13887288009160334 -0.10366068307538966 -0.22310091996204984
358.86287625418055 0.1971918145799303 0.1611327522041906 0.3463731902754702 -0.15637541243134037 0.34637319027546953 -0.15637541243134004 -0.10316399714802554 -0.23282088665466588
361.87290969899664 0.2067191479500725 0.16378103535124294 0.3342849814983133 -0.1729454819352324 0.3342849814983137 -0.17294548193523263 -0.10316686270269823 -0.24272130543075876
364.88294314381267 0.21709556181430073 0.16585776027551846 0.32148076661699715 -0.18855495328638336 0.3214807666169977 -0.1885549532863837 -0.10367978783255394 -0.2527642799093159
367.89297658862876 0.22827597708593012 0.1672629538557806 0.3080406814026057 -0.20318308702488147 0.3080406814026054 -0.2031830870248809 -0.10470974241344636 -0.26291193828125586
370.90301003344484 0.24020483250965952 0.16790216121127044 0.2940437415031676 -0.21681621460661238 0.29404374150316837 -0.21681621460661293 -0.1062602940424018 -0.2731267969468235
373.9130434782609 0.2528169686184616 0.16768749864252658 0.27956719596979457 -0.22944734392523516 0.27956719596979474 -0.2294473439252355 -0.10833178146904146 -0.28337209097961524
376.9230769230769 0.266038605765133 0.1665385545215799 0.2646859567785697 -0.24107570858740074 0.2646859567785695 -0.24107570858740063 -0.11092151892660496 -0.29361206810791696
379.933110367893 0.2797883902233897 0.1643831335197159 0.24947210757207344 -0.25170627423870573 0.24947210757207292 -0.25170627423870556 -0.11402402468941056 -0.30381224412980035
382.943143812709 0.2939784833802862 0.16115784383139953 0.2339944926242482 -0.26134921483650064 0.2339944926242487 -0.2613492148365015 -0.11763126731816093 -0.3139396188251531
385.9531772575251 0.3085156707046719 0.15680853081900364 0.2183183850515627 -0.2700193710243435 0.2183183850515628 -0.2700193710243435 -0.12173292337013786 -0.32396285246263673
388.96321070234114 0.3233024693264573 0.15129056369357657 0.2025052315928109 -0.2777357017555061 0.20250523159281056 -0.27773570175550555 -0.12631664081141497 -0.3338524038994255
391.9732441471572 0.3382382155509325 0.14456898442703103 0.18661246988148328 -0.2845207391137894 0.18661246988148375 -0.2845207391137902 -0.13136830293558027 -0.3435806320227728
394.98327759197326 0.35322011632173794 0.13661853005883035 0.17069341304393396 -0.2904000549604842 0.17069341304393384 -0.2904000549604842 -0.13687228823154568 -0.3531218628802786
397.9933110367893 0.3681442514104316 0.12742354093935304 0.1547971956647917 -0.2954017466609166 0.15479719566479191 -0.2954017466609169 -0.14281172231888767 -0.36245242529245514
401.0033444816053 0.3829065158427589 0.11697776828788875 0.13896877464853194 -0.29955594776901184 0.13896877464853202 -0.29955594776901157 -0.14916871875326984 -0.371550658045392
404.0133779264214 0.39740349468468655 0.10528409479512302 0.12324897824485209 -0.30289436821975807 0.12324897824485187 -0.30289436821975735 -0.15592460617250506 -0.3803968919357507
407.02341137123744 0.4115332647382639 0.09235418193652833 0.10767459646261071 -0.30544986733365886 0.10767459646261078 -0.3054498673336587 -0.16306013988618345 -0.3889734100007323
410.03344481605353 0.4251961198914376 0.07820805725684776 0.09227850623678176 -0.3072560618004151 0.09227850623678194 -0.3072560618004159 -0.17055569659402786 -0.3972643892295783
413.04347826086956 0.4382952187976393 0.06287365420898194 0.07708982499930547 -0.30834696979831194 0.07708982499930545 -0.3083469697983125 -0.17839145144033638 -0.4052558269383316
416.0535117056856 0.45073715521688934 0.046386316251888604 0.062134086702939254 -0.30875669153017216 0.06213408670293935 -0.3087566915301728 -0.18654753706845997 -0.41293545481361377
419.0635451505017 0.462432452729313 0.02878827589446109 0.047433434825292206 -0.3085191257185496 0.047433434825292366 -0.3085191257185498 -0.19500418472794376 -0.4202926434102957
422.0735785953177 0.473295986644083 0.010128118271368947 0.033006827409312135 -0.3076677209989165 0.03300682740931231 -0.3076677209989171 -0.2037418478085376 -0.4273182996370242
425.0836120401338 0.48324733678891096 -0.009539762300050159 0.01887024975194742 -0.30623526067262347 0.01887024975194739 -0.30623526067262313 -0.21274130843274794 -0.43400475949537587
428.09364548494983 0.4922110754997499 -0.030155705466576532 0.005036930913850949 -0.3042536789210805 0.005036930913850837 -0.3042536789210796 -0.2219837679364898 -0.44034567806386615
