! Created with skrf (http://scikit-rf.org).
# MHz S RI R 376.73031366686166 
!freq ReS11 ImS11 ReS21 ImS21 ReS12 ImS12 ReS22 ImS22
100.0 -0.72866551248256 -0.028052039990117975 0.2568406740966585 -0.15551627304466786 0.2568406740966586 -0.15551627304466803 -0.7286655124825598 -0.028052039990118044
103.01003344481606 -0.7304575415645723 -0.02794427072626718 0.25412087405518896 -0.15935184641761624 0.254120874055189 -0.15935184641761618 -0.7304575415645724 -0.027944270726267165
106.0200668896321 -0.7322639502917767 -0.027766383535642994 0.25135395167339536 -0.16312660970689524 0.25135395167339525 -0.1631266097068951 -0.7322639502917765 -0.027766383535642994
109.03010033444816 -0.7340822108774129 -0.027518097443913758 0.24854194658978948 -0.16684052309735461 0.24854194658978962 -0.1668405230973546 -0.7340822108774128 -0.02751809744391366
112.04013377926421 -0.735909818066731 -0.027199223715878296 0.2456868574638784 -0.1704936353148698 0.24568685746387847 -0.1704936353148698 -0.735909818066731 -0.027199223715878323
115.05016722408027 -0.737744292605519 -0.026809662568595613 0.2427906381104496 -0.17408608007147633 0.2427906381104495 -0.17408608007147625 -0.7377442926055189 -0.02680966256859557
118.06020066889631 -0.7395831844129441 -0.026349399771050108 0.23985519391540372 -0.17761807238000651 0.2398551939154038 -0.17761807238000646 -0.7395831844129443 -0.026349399771050067
121.07023411371237 -0.7414240754592928 -0.025818503153565 0.236882378532348 -0.1810899047604524 0.23688237853234792 -0.1810899047604524 -0.7414240754592929 -0.025818503153564945
124.08026755852842 -0.743264582350891 -0.025217119049366868 0.23387399085750243 -0.18450194335942968 0.23387399085750227 -0.1845019433594296 -0.7432645823508911 -0.025217119049366923
127.09030100334448 -0.7451023586260119 -0.0245454686897605 0.23083177227893364 -0.1878546240031068 0.23083177227893364 -0.18785462400310687 -0.7451023586260118 -0.0245454686897605
130.10033444816054 -0.7469350967669793 -0.02380384457336346 0.22775740419474186 -0.1911484482029085 0.2277574041947418 -0.19114844820290838 -0.7469350967669792 -0.023803844573363556
133.11036789297657 -0.7487605299349406 -0.022992606828771675 0.22465250579358167 -0.19438397913215066 0.2246525057935817 -0.1943839791321507 -0.7487605299349407 -0.022992606828771647
136.12040133779263 -0.7505764334348941 -0.022112179588882036 0.22151863208979888 -0.19756183759056964 0.22151863208979894 -0.19756183759056967 -0.7505764334348941 -0.02211217958888205
139.1304347826087 -0.752380625919536 -0.02116304739392527 0.2183572722045003 -0.20068269797245306 0.21835727220450019 -0.20068269797245303 -0.7523806259195364 -0.02116304739392541
142.14046822742475 -0.7541709703413272 -0.020145751639065762 0.21516984788305835 -0.20374728425282598 0.2151698478830583 -0.20374728425282596 -0.7541709703413271 -0.020145751639065776
145.1505016722408 -0.7559453746628947 -0.01906088708121123 0.211957712238868 -0.206756366004851 0.2119577122388679 -0.20675636600485087 -0.7559453746628946 -0.019060887081211175
148.16053511705684 -0.7577017923364635 -0.017909098418475364 0.2087221487126101 -0.2097107544603215 0.20872214871261005 -0.20971075446032147 -0.7577017923364635 -0.01790909841847524
151.1705685618729 -0.7594382225634801 -0.016691076954531495 0.20546437023585135 -0.21261129862384764 0.2054643702358514 -0.21261129862384778 -0.7594382225634801 -0.016691076954531398
154.18060200668896 -0.7611527103459325 -0.015407557358940963 0.20218551858749137 -0.2154588814500864 0.20218551858749134 -0.21545888145008635 -0.7611527103459325 -0.01540755735894088
157.19063545150502 -0.7628433463411234 -0.014059314533380565 0.19888666393136106 -0.21825441609212298 0.19888666393136115 -0.21825441609212304 -0.7628433463411232 -0.014059314533380607
160.20066889632105 -0.7645082665318055 -0.012647160592612158 0.19556880452317196 -0.22099884222793506 0.19556880452317177 -0.22099884222793492 -0.7645082665318055 -0.0126471605926122
163.2107023411371 -0.7661456517236395 -0.011171941967970306 0.19223286657500394 -0.22369312247069828 0.19223286657500388 -0.22369312247069825 -0.7661456517236395 -0.01117194196797025
166.22073578595317 -0.7677537268819244 -0.009634536640144561 0.18887970426559575 -0.22633823886760213 0.18887970426559567 -0.22633823886760185 -0.7677537268819243 -0.009634536640144575
169.23076923076923 -0.7693307603194541 -0.008035851507086161 0.18551009988485154 -0.22893518949077354 0.1855100998848514 -0.22893518949077346 -0.769330760319454 -0.008035851507086259
172.24080267558526 -0.7708750627472045 -0.006376819891971558 0.182124764101201 -0.23148498512291243 0.1821247641012011 -0.23148498512291266 -0.7708750627472045 -0.006376819891971544
175.25083612040132 -0.772384986199345 -0.004658399195333937 0.17872433634073695 -0.23398864603929095 0.17872433634073687 -0.2339886460392908 -0.7723849861993448 -0.004658399195333854
178.26086956521738 -0.7738589228438114 -0.002881568694698411 0.1753093852673886 -0.23644719888687446 0.1753093852673886 -0.23644719888687438 -0.7738589228438114 -0.002881568694698383
181.27090301003344 -0.7752953036893918 -0.0010473274943574723 0.17188040935378146 -0.23886167366050168 0.17188040935378146 -0.23886167366050168 -0.7752953036893916 -0.001047327494357403
184.2809364548495 -0.7766925971999333 0.0008433073727236173 0.16843783753286407 -0.2412331007752699 0.1684378375328641 -0.24123310077526988 -0.7766925971999333 0.0008433073727236173
187.29096989966553 -0.7780493078259479 0.0027893026894551254 0.1649820299208402 -0.24356250823356712 0.16498202992084024 -0.24356250823356712 -0.7780493078259479 0.0027893026894552225
190.3010033444816 -0.7793639744635144 0.0047896106447309905 0.16151327860244732 -0.2458509188845286 0.1615132786024474 -0.24585091888452867 -0.7793639744635145 0.004789610644731032
193.31103678929765 -0.7806351688499885 0.0068431702686560375 0.15803180847013643 -0.24809934777308762 0.15803180847013662 -0.24809934777308784 -0.7806351688499884 0.006843170268656135
196.3210702341137 -0.7818614939056631 0.008948908712854767 0.15453777810924563 -0.25030879957524044 0.1545377781092456 -0.2503087995752403 -0.7818614939056631 0.008948908712854795
199.33110367892974 -0.7830415820301112 0.011105742376160868 0.15103128072181807 -0.25248026611564295 0.15103128072181818 -0.25248026611564306 -0.7830415820301112 0.01110574237616098
202.3411371237458 -0.7841740933615797 0.013312577876283163 0.1475123450822784 -0.2546147239632115 0.1475123450822783 -0.2546147239632113 -0.7841740933615796 0.013312577876283177
205.35117056856186 -0.7852577140074112 0.015568312868273287 0.143980936518753 -0.25671313209998026 0.143980936518753 -0.2567131320999803 -0.7852577140074112 0.015568312868273343
208.36120401337791 -0.7862911542531182 0.017871836710819988 0.140436957914407 -0.25877642965812425 0.140436957914407 -0.2587764296581243 -0.786291154253118 0.0178718367108201
211.37123745819395 -0.7872731467573827 0.020222030981528943 0.13688025072375015 -0.26080553371972676 0.13688025072374999 -0.2608055337197264 -0.7872731467573828 0.020222030981528846
214.38127090301 -0.7882024447399328 0.022617769842460056 0.1333105959994472 -0.2628013371735884 0.13331059599944725 -0.26280133717358833 -0.788202444739933 0.022617769842460042
217.39130434782606 -0.7890778201689329 0.025057920257251287 0.1297277154257633 -0.2647647066231399 0.1297277154257633 -0.2647647066231399 -0.7890778201689329 0.02505792025725123
220.40133779264212 -0.7898980619542623 0.02754134206118891 0.1261312723553509 -0.2666964803392987 0.12613127235535104 -0.26669648033929916 -0.7898980619542623 0.02754134206118894
223.41137123745816 -0.7906619741527935 0.03006688788558108 0.12252087284667522 -0.26859746625194 0.12252087284667527 -0.26859746625194 -0.7906619741527936 0.030066887885581095
226.42140468227421 -0.7913683741915691 0.03263340293775726 0.11889606669995603 -0.2704684399734928 0.11889606669995603 -0.2704684399734928 -0.7913683741915691 0.03263340293775727
229.43143812709027 -0.792016091114593 0.035239724637957257 0.11525634849008844 -0.2723101428480668 0.11525634849008838 -0.27231014284806665 -0.7920160911145928 0.03523972463795732
232.44147157190633 -0.7926039638587818 0.03788468211429718 0.11160115859557876 -0.2741232800193874 0.11160115859557883 -0.27412328001938757 -0.7926039638587817 0.0378846821142971
235.45150501672242 -0.7931308395645373 0.04056709555688904 0.10792988422312286 -0.27590851851078324 0.10792988422312273 -0.275908518510783 -0.7931308395645373 0.040567095556889046
238.46153846153845 -0.7935955719262915 0.04328577543208967 0.10424186042802476 -0.2776664853103762 0.10424186042802479 -0.27766648531037635 -0.7935955719262916 0.04328577543208966
241.4715719063545 -0.7939970195883532 0.04603952155771169 0.10053637113124582 -0.2793977654546307 0.10053637113124597 -0.27939776545463113 -0.7939970195883534 0.046039521557711675
244.48160535117057 -0.7943340445913872 0.04882712203990221 0.09681265013445348 -0.28110290010338074 0.09681265013445343 -0.2811029001033807 -0.7943340445913875 0.04882712203990217
247.49163879598663 -0.7946055108748941 0.051647352072246355 0.09306988213503546 -0.2827823845994766 0.09306988213503532 -0.2827823845994763 -0.7946055108748938 0.05164735207224634
250.50167224080266 -0.7948102828411445 0.05449897259750882 0.08930720374364134 -0.28443666650622473 0.0893072037436414 -0.2844366665062249 -0.7948102828411444 0.054498972597508744
253.51170568561872 -0.7949472239861637 0.05738072883228205 0.08552370450741895 -0.28606614361582866 0.08552370450741892 -0.28606614361582866 -0.7949472239861634 0.057380728832282
256.52173913043475 -0.7950151956035194 0.06029134865467223 0.08171842794273088 -0.28767116192211967 0.08171842794273083 -0.28767116192211944 -0.7950151956035196 0.06029134865467219
259.53177257525084 -0.7950130555669072 0.06322954085501786 0.07789037258176802 -0.2892520135509511 0.07789037258176804 -0.2892520135509511 -0.7950130555669073 0.06322954085501788
262.5418060200669 -0.7949396571977753 0.0661939932495266 0.07403849303811834 -0.29080893464174573 0.07403849303811831 -0.29080893464174573 -0.7949396571977752 0.06619399324952666
265.55183946488296 -0.7947938482245738 0.06918337065660439 0.07016170109701336 -0.2923421031738099 0.07016170109701333 -0.2923421031738098 -0.7947938482245738 0.06918337065660445
268.561872909699 -0.7945744698405505 0.07219631273557897 0.0662588668366545 -0.2938516367312071 0.06625886683665447 -0.2938516367312071 -0.7945744698405504 0.07219631273557899
271.5719063545151 -0.7942803558674556 0.07523143168745959 0.062328819787725864 -0.2953375902001631 0.06232881978772589 -0.29533759020016315 -0.7942803558674554 0.0752314316874596
274.58193979933105 -0.7939103320329671 0.07828730981735339 0.05837035013892317 -0.2967999533931978 0.0583703501389232 -0.29679995339319776 -0.793910332032967 0.0782873098173534
277.5919732441472 -0.7934632153701766 0.08136249695816966 0.05438220999708232 -0.29823864859444876 0.054382209997082306 -0.29823864859444854 -0.7934632153701768 0.08136249695816967
280.6020066889632 -0.7929378137480367 0.08445550775529567 0.05036311471127207 -0.2996535280209333 0.05036311471127204 -0.29965352802093326 -0.7929378137480368 0.08445550775529567
283.61204013377926 -0.792332925542293 0.08756481881203049 0.046311744271018605 -0.3010443711948594 0.04631174427101857 -0.30104437119485933 -0.7923329255422932 0.08756481881203049
286.6220735785953 -0.7916473394571032 0.0906888656957149 0.042226744789676474 -0.3024108822224759 0.04222674478967643 -0.3024108822224759 -0.7916473394571032 0.09068886569571491
289.6321070234114 -0.7908798345082529 0.09382603980471559 0.03810673008482163 -0.303752686975405 0.03810673008482169 -0.3037526869754051 -0.7908798345082529 0.09382603980471557
292.6421404682274 -0.7900291801796726 0.09697468509670235 0.0339502833684568 -0.3050693301709288 0.0339502833684568 -0.30506933017092874 -0.7900291801796725 0.09697468509670232
295.6521739130435 -0.789094136765761 0.10013309467902409 0.029755959060743173 -0.30636027234827007 0.029755959060743152 -0.3063602723482701 -0.7890941367657609 0.10013309467902412
298.6622073578595 -0.7880734559129154 0.10329950726242997 0.025522284741950924 -0.3076248867385809 0.02552228474195095 -0.3076248867385814 -0.7880734559129156 0.10329950726242998
301.6722408026756 -0.7869658813745632 0.10647210347993302 0.02124776325831159 -0.3088624560271132 0.02124776325831162 -0.3088624560271133 -0.786965881374563 0.10647210347993308
304.6822742474916 -0.7857701499949687 0.10964900207325796 0.016930874998488405 -0.31007216900688306 0.016930874998488415 -0.31007216900688317 -0.7857701499949686 0.10964900207325799
307.69230769230774 -0.7844849929380717 0.11282825595007905 0.012570080358431327 -0.3112531171241197 0.012570080358431343 -0.31125311712412 -0.7844849929380717 0.11282825595007917
310.7023411371237 -0.7831091371786572 0.11600784811615267 0.008163822413463641 -0.31240429091685795 0.008163822413463653 -0.31240429091685823 -0.7831091371786569 0.11600784811615267
313.7123745819398 -0.7816413072742046 0.11918568748747514 0.003710529817533912 -0.3135245763492554 0.0037105298175339535 -0.31352457634925535 -0.7816413072742042 0.11918568748747521
316.72240802675583 -0.7800802274368557 0.1223596045887936 -0.0007913800493192744 -0.3146127510455786 -0.0007913800493192227 -0.31461275104557873 -0.7800802274368557 0.12235960458879366
319.7324414715719 -0.778424623926011 0.12552734714614236 -0.0053434976631504556 -0.3156674804293153 -0.0053434976631504755 -0.31566748042931553 -0.7784246239260111 0.12552734714614233
322.7424749163879 -0.7766732277831752 0.12868657558262098 -0.009947417644687746 -0.31668731377457254 -0.009947417644687704 -0.3166873137745727 -0.7766732277831749 0.12868657558262114
325.75250836120404 -0.7748247779317257 0.13183485842836173 -0.014604734729994255 -0.31767068017879935 -0.01460473472999424 -0.3176706801787991 -0.7748247779317258 0.13183485842836168
328.76254180602 -0.7728780246653376 0.13496966765757096 -0.019317039397848127 -0.3186158844679601 -0.019317039397848065 -0.31861588446796035 -0.7728780246653377 0.13496966765757099
331.77257525083616 -0.7708317335497865 0.13808837396771406 -0.02408591312749179 -0.31952110304759423 -0.024085913127491827 -0.31952110304759446 -0.7708317335497866 0.13808837396771412
334.78260869565213 -0.768684689763785 0.14118824201831132 -0.02891292325948533 -0.3203843797157364 -0.02891292325948537 -0.3203843797157369 -0.768684689763785 0.14118824201831137
337.7926421404682 -0.7664357029053491 0.14426642564950012 -0.033799617431586146 -0.3212036214564725 -0.03379961743158618 -0.32120362145647274 -0.7664357029053493 0.1442664256495002
340.80267558528425 -0.7640836122908907 0.14731996310344278 -0.03874751756087141 -0.3219765942359497 -0.0387475175608714 -0.3219765942359498 -0.764083612290891 0.14731996310344286
343.81270903010034 -0.7616272927748163 0.15034577227491414 -0.04375811334279844 -0.32270091882602175 -0.043758113342798464 -0.3227009188260218 -0.7616272927748162 0.15034577227491425
346.8227424749163 -0.7590656611177788 0.15334064602090336 -0.048832855237532266 -0.3233740666843117 -0.048832855237532245 -0.3233740666843115 -0.7590656611177787 0.15334064602090342
349.83277591973246 -0.7563976829318707 0.15630124756292815 -0.053973146913767485 -0.32399335592343265 -0.05397314691376753 -0.3239933559234329 -0.7563976829318706 0.15630124756292824
352.84280936454843 -0.7536223802309422 0.15922410601989273 -0.05918033712041418 -0.3245559474063398 -0.05918033712041419 -0.32455594740633986 -0.7536223802309424 0.15922410601989279
355.8528428093646 -0.7507388396137539 0.16210561211380758 -0.06445571095701493 -0.3250588410093402 -0.0644557109570149 -0.32505884100934007 -0.7507388396137539 0.16210561211380756
358.86287625418055 -0.747746221106877 0.1649420140954833 -0.06980048051460568 -0.3254988720991817 -0.06980048051460574 -0.32549887209918177 -0.7477462211068773 0.1649420140954833
361.87290969899664 -0.744643767692964 0.1677294139424217 -0.07521577486004757 -0.32587270827580916 -0.07521577486004759 -0.3258727082758093 -0.744643767692964 0.16772941394242172
364.88294314381267 -0.7414308155482577 0.17046376388655 -0.08070262933865385 -0.3261768464378783 -0.08070262933865374 -0.3261768464378783 -0.7414308155482578 0.17046376388655
367.89297658862876 -0.7381068050108678 0.17314086333514542 -0.0862619741723197 -0.32640761023388093 -0.08626197417231975 -0.3264076102338809 -0.7381068050108676 0.17314086333514547
370.90301003344484 -0.7346712922983272 0.17575635625427455 -0.09189462233340488 -0.32656114796776975 -0.09189462233340477 -0.3265611479677695 -0.7346712922983272 0.17575635625427458
373.9130434782609 -0.7311239619892446 0.178305729090242 -0.09760125667836336 -0.32663343103420117 -0.09760125667836354 -0.32663343103420184 -0.7311239619892447 0.17830572909024206
376.9230769230769 -0.7274646402792923 0.18078430931092945 -0.10338241632972944 -0.3266202529649515 -0.10338241632972951 -0.32662025296495195 -0.7274646402792921 0.18078430931092948
379.933110367893 -0.7236933090163524 0.183187264655356 -0.10923848230051557 -0.3265172291745533 -0.10923848230051561 -0.32651722917455345 -0.7236933090163524 0.183187264655356
382.943143812709 -0.719810120513186 0.18550960318630663 -0.11516966236158611 -0.32631979749977336 -0.11516966236158621 -0.32631979749977347 -0.7198101205131859 0.18550960318630666
385.9531772575251 -0.7158154131284782 0.1877461742473176 -0.12117597516010972 -0.32602321963402237 -0.12117597516010982 -0.32602321963402253 -0.7158154131284784 0.18774617424731757
388.96321070234114 -0.711709727598426 0.1898916704315669 -0.12725723360592356 -0.325622583564092 -0.12725723360592353 -0.32562258356409185 -0.7117097275984261 0.1898916704315669
391.9732441471572 -0.7074938240910977 0.19194063067616884 -0.13341302755261167 -0.32511280712259566 -0.1334130275526118 -0.32511280712259605 -0.7074938240910977 0.1919406306761689
394.98327759197326 -0.7031686999445319 0.1938874446008687 -0.1396427058114009 -0.3244886427750286 -0.13964270581140079 -0.32448864277502837 -0.703168699944532 0.19388744460086857
397.9933110367893 -0.6987356080368993 0.19572635821495227 -0.14594535754865473 -0.32374468376519133 -0.14594535754865454 -0.3237446837651908 -0.6987356080368992 0.19572635821495218
401.0033444816053 -0.694196075722966 0.19745148112019217 -0.15231979313186642 -0.3228753717467816 -0.1523197931318664 -0.32287537174678144 -0.6941960757229663 0.19745148112019212
404.0133779264214 -0.6895519242555515 0.1990567953405386 -0.15876452450462958 -0.32187500603184505 -0.15876452450462955 -0.32187500603184516 -0.6895519242555515 0.1990567953405385
407.02341137123744 -0.6848052885936582 0.20053616591084975 -0.16527774518811042 -0.32073775458840187 -0.1652777451881104 -0.3207377545884019 -0.6848052885936582 0.20053616591084972
410.03344481605353 -0.679958637480514 0.2018833533569189 -0.17185731002502705 -0.3194576669195397 -0.171857310025027 -0.3194576669195396 -0.6799586374805138 0.20188335335691895
413.04347826086956 -0.6750147936549244 0.2030920281970987 -0.1785007148019924 -0.3180286889543315 -0.17850071480199234 -0.3180286889543314 -0.6750147936549246 0.20309202819709873
416.0535117056856 -0.6699769540382783 0.20415578759167785 -0.1852050759071897 -0.3164446800768045 -0.18520507590718982 -0.31644468007680465 -0.6699769540382782 0.20415578759167793
419.0635451505017 -0.6648487097173355 0.2050681742594197 -0.19196711020255944 -0.3146994324124578 -0.19196711020255963 -0.31469943241245796 -0.6648487097173353 0.2050681742594198
422.0735785953177 -0.6596340655198942 0.2058226977710743 -0.19878311531277193 -0.31278669248224017 -0.19878311531277174 -0.31278669248223995 -0.6596340655198941 0.20582269777107423
425.0836120401338 -0.6543374589567501 0.20641285831682443 -0.20564895055694227 -0.3107001853210644 -0.2056489505569425 -0.31070018532106447 -0.65433745895675 0.2064128583168245
428.09364548494983 -0.6489637782794655 0.2068321730282154 -0.2125600187729799 -0.3084336411415306 -0.21256001877297973 -0.30843364114153043 -0.6489637782794655 0.20683217302821544
