! Created with skrf (http://scikit-rf.org).
# MHz S RI R 376.73031366686166 
!freq ReS11 ImS11 ReS21 ImS21 ReS12 ImS12 ReS22 ImS22
100.0 -0.5910102182370188 0.00695487371948883 0.3972678534814516 -0.11868342232090491 0.3972678534814513 -0.1186834223209049 -0.5910102182370188 0.00695487371948883
103.01003344481606 -0.5913257629619102 0.007268456661101486 0.39623005436687087 -0.12214390933358032 0.396230054366871 -0.12214390933358035 -0.5913257629619102 0.007268456661101513
106.0200668896321 -0.5916484073145115 0.007590981871598679 0.39516301967161716 -0.12559469416976737 0.39516301967161704 -0.12559469416976735 -0.5916484073145114 0.007590981871598734
109.03010033444816 -0.5919779612758648 0.007922663475093433 0.39406687643609783 -0.1290355292162089 0.39406687643609806 -0.12903552921620887 -0.5919779612758651 0.007922663475093433
112.04013377926421 -0.5923142304452693 0.008263711752233588 0.39294175426895533 -0.13246616969926353 0.39294175426895533 -0.13246616969926356 -0.592314230445269 0.008263711752233643
115.05016722408027 -0.5926570161247249 0.008614333062216983 0.3917877852632801 -0.1358863737302726 0.39178778526327973 -0.13588637373027246 -0.5926570161247249 0.008614333062216956
118.06020066889631 -0.5930061154046514 0.008974729767068673 0.39060510391166275 -0.13929590234831488 0.3906051039116624 -0.1392959023483146 -0.5930061154046512 0.008974729767068645
121.07023411371237 -0.5933613212507908 0.009345100158205444 0.38939384702017754 -0.14269451956031692 0.38939384702017743 -0.14269451956031684 -0.5933613212507906 0.009345100158205527
124.08026755852842 -0.5937224225922256 0.009725638385295637 0.3881541536213796 -0.14608199237850086 0.3881541536213799 -0.1460819923785008 -0.5937224225922255 0.009725638385295748
127.09030100334448 -0.5940892044104378 0.010116534387432347 0.3868861648863963 -0.14945809085513803 0.38688616488639616 -0.14945809085513806 -0.5940892044104376 0.010116534387432263
130.10033444816054 -0.594461447829331 0.010517973826626559 0.38559002403620085 -0.15282258811459762 0.3855900240362009 -0.1528225881145975 -0.594461447829331 0.010517973826626698
133.11036789297657 -0.5948389302061383 0.010930138023631686 0.38426587625215225 -0.15617526038266294 0.3842658762521522 -0.15617526038266283 -0.5948389302061385 0.010930138023631575
136.12040133779263 -0.5952214252231482 0.01135320389609551 0.3829138685858876 -0.1595158870131156 0.38291386858588733 -0.15951588701311545 -0.5952214252231485 0.011353203896095482
139.1304347826087 -0.5956087029801637 0.011787343899051062 0.38153414986864703 -0.16284425051156054 0.381534149868647 -0.1628442505115605 -0.5956087029801638 0.011787343899051145
142.14046822742475 -0.5960005300876291 0.012232725967738223 0.38012687062012424 -0.16616013655649506 0.38012687062012435 -0.16616013655649514 -0.5960005300876291 0.012232725967738028
145.1505016722408 -0.596396669760348 0.012689513462753266 0.37869218295691426 -0.16946333401760905 0.37869218295691437 -0.1694633340176091 -0.596396669760348 0.012689513462753377
148.16053511705684 -0.596796881911718 0.013157865117522094 0.3772302405006565 -0.172753634971318 0.37723024050065673 -0.17275363497131813 -0.5967968819117181 0.013157865117522233
151.1705685618729 -0.597200923248413 0.013637934988085465 0.37574119828594627 -0.1760308347135242 0.3757411982859464 -0.17603083471352435 -0.5972009232484129 0.013637934988085493
154.18060200668896 -0.5976085473654389 0.014129872405186206 0.37422521266810177 -0.17929473176961033 0.37422521266810177 -0.17929473176961022 -0.5976085473654387 0.014129872405186178
157.19063545150502 -0.598019504841498 0.014633821928640794 0.3726824412308696 -0.18254512790167002 0.3726824412308694 -0.18254512790167 -0.5980195048414981 0.014633821928640822
160.20066889632105 -0.5984335433345875 0.015149923303984347 0.3711130426941463 -0.18578182811298163 0.3711130426941464 -0.1857818281129817 -0.5984335433345876 0.015149923303984403
163.2107023411371 -0.5988504076777663 0.015678311421363972 0.369517176821804 -0.18900464064973446 0.36951717682180385 -0.18900464064973446 -0.5988504076777665 0.015678311421364027
166.22073578595317 -0.5992698399750273 0.01621911627666145 0.36789500432969063 -0.19221337700002086 0.3678950043296908 -0.192213377000021 -0.5992698399750271 0.01621911627666145
169.23076923076923 -0.5996915796972033 0.01677246293482343 0.3662466867938912 -0.19540785189010546 0.36624668679389116 -0.1954078518901054 -0.5996915796972034 0.016772462934823512
172.24080267558526 -0.6001153637778507 0.017338471495368823 0.36457238655932617 -0.19858788327799123 0.36457238655932633 -0.19858788327799123 -0.6001153637778508 0.01733847149536888
175.25083612040132 -0.6005409267090408 0.017917257060048458 0.36287226664876093 -0.20175329234430045 0.3628722666487605 -0.2017532923443002 -0.6005409267090408 0.017917257060048486
178.26086956521738 -0.6009680006370072 0.018508929702625465 0.36114649067230686 -0.2049039034804878 0.36114649067230675 -0.20490390348048776 -0.6009680006370071 0.018508929702625326
181.27090301003344 -0.6013963154575822 0.0191135944407467 0.35939522273748203 -0.20803954427441304 0.3593952227374818 -0.20803954427441285 -0.6013963154575821 0.019113594440746756
184.2809364548495 -0.6018255989113703 0.019731351209867326 0.35761862735991456 -0.21116004549329387 0.35761862735991445 -0.21116004549329379 -0.6018255989113704 0.019731351209867437
187.29096989966553 -0.6022555766786032 0.020362294839193468 0.3558168693747489 -0.21426524106407194 0.35581686937474916 -0.2142652410640722 -0.6022555766786032 0.02036229483919358
190.3010033444816 -0.6026859724736172 0.021006515029610456 0.3539901138488347 -0.21735496805121063 0.3539901138488346 -0.21735496805121057 -0.6026859724736171 0.02100651502961043
193.31103678929765 -0.6031165081389133 0.02166409633354771 0.35213852599376294 -0.22042906663196568 0.3521385259937634 -0.220429066631966 -0.6031165081389133 0.021664096333547628
196.3210702341137 -0.6035469037387362 0.02233511813675021 0.3502622710798197 -0.22348738006915383 0.35026227107982005 -0.223487380069154 -0.6035469037387361 0.022335118136750293
199.33110367892974 -0.603976877652137 0.023019654641905113 0.34836151435092216 -0.22652975468145536 0.34836151435092216 -0.22652975468145556 -0.6039768776521371 0.023019654641905224
202.3411371237458 -0.604406146665465 0.023717774854086354 0.3464364209405977 -0.229556039811284 0.34643642094059773 -0.22955603981128397 -0.6044061466654649 0.023717774854086437
205.35117056856186 -0.6048344260642522 0.024429542567966728 0.34448715578908184 -0.2325660877902649 0.3444871557890821 -0.23256608779026508 -0.6048344260642521 0.024429542567966783
208.36120401337791 -0.6052614297244425 0.02515501635675549 0.34251388356158063 -0.23555975390235495 0.34251388356158047 -0.23555975390235478 -0.6052614297244426 0.0251550163567556
211.37123745819395 -0.6056868702029354 0.02589424956281236 0.34051676856776825 -0.23853689634464498 0.3405167685677685 -0.23853689634464506 -0.6056868702029354 0.025894249562812333
214.38127090301 -0.6061104588273948 0.02664729028988752 0.3384959746825772 -0.24149737618588832 0.33849597468257747 -0.2414973761858885 -0.6061104588273949 0.02664729028988741
217.39130434782606 -0.6065319057853032 0.027414181396941933 0.3364516652683315 -0.24444105732279228 0.33645166526833165 -0.2444410573227924 -0.6065319057853032 0.02741418139694199
220.40133779264212 -0.6069509202122143 0.028194960493493793 0.3343840030982871 -0.24736780643412012 0.33438400309828736 -0.2473678064341204 -0.6069509202122143 0.028194960493493793
223.41137123745816 -0.6073672102791845 0.028989659936443063 0.33229315028162554 -0.2502774929326439 0.3322931502816257 -0.25027749293264406 -0.6073672102791845 0.02898965993644309
226.42140468227421 -0.60778048327935 0.029798306828319937 0.33017926818995663 -0.25316998891499437 0.3301792681899566 -0.25316998891499426 -0.6077804832793499 0.029798306828319937
229.43143812709027 -0.6081904457136259 0.030620923016904583 0.3280425173853812 -0.25604516910945796 0.32804251738538126 -0.2560451691094578 -0.6081904457136259 0.030620923016904555
232.44147157190633 -0.6085968033754994 0.031457525096169475 0.3258830575501578 -0.25890291082175637 0.3258830575501579 -0.2589029108217565 -0.6085968033754995 0.03145752509616931
235.45150501672242 -0.6089992614349078 0.03230812440848277 0.32370104741802774 -0.26174309387887207 0.3237010474180275 -0.26174309387887185 -0.6089992614349078 0.03230812440848274
238.46153846153845 -0.6093975245211668 0.033172727048028317 0.32149664470723555 -0.26456560057095047 0.32149664470723527 -0.26456560057095035 -0.6093975245211668 0.03317272704802829
241.4715719063545 -0.609791296804942 0.03405133386537998 0.31927000605529565 -0.2673703155913417 0.3192700060552955 -0.2673703155913416 -0.6097912968049418 0.03405133386537998
244.48160535117057 -0.6101802820792525 0.03494394047318128 0.317021286955544 -0.2701571259748246 0.3170212869555438 -0.27015712597482466 -0.6101802820792527 0.034943940473181195
247.49163879598663 -0.6105641838394831 0.03585053725287324 0.314750641695515 -0.2729259210340588 0.314750641695515 -0.27292592103405877 -0.610564183839483 0.03585053725287324
250.50167224080266 -0.610942705362406 0.0367711093624187 0.31245822329718537 -0.2756765922943273 0.31245822329718553 -0.2756765922943274 -0.6109427053624064 0.03677110936241865
253.51170568561872 -0.6113155497842038 0.0377056367449638 0.3101441834591206 -0.27840903342660667 0.3101441834591204 -0.27840903342660656 -0.6113155497842037 0.03770563674496394
256.52173913043475 -0.6116824201774775 0.03865409413838988 0.3078086725005569 -0.28112314017902107 0.30780867250055693 -0.281123140179021 -0.6116824201774775 0.038654094138389855
259.53177257525084 -0.6120430196272549 0.0396164510856932 0.30545183930746284 -0.28381881030673584 0.30545183930746295 -0.2838188103067358 -0.6120430196272552 0.03961645108569317
262.5418060200669 -0.6123970513059803 0.04059267194614641 0.3030738312806023 -0.2864959435003329 0.3030738312806027 -0.28649594350033336 -0.6123970513059801 0.04059267194614641
265.55183946488296 -0.612744218547502 0.041582715907184015 0.30067479428563887 -0.2891544413127282 0.30067479428563904 -0.28915444131272827 -0.6127442185475018 0.041582715907184015
268.561872909699 -0.6130842249200517 0.04258653699695977 0.29825487260530575 -0.29179420708467213 0.29825487260530564 -0.291794207084672 -0.6130842249200514 0.04258653699695991
271.5719063545151 -0.6134167742982245 0.04360408409752445 0.2958142088936765 -0.2944151458688979 0.29581420889367654 -0.29441514586889794 -0.6134167742982245 0.043604084097524504
274.58193979933105 -0.6137415709339715 0.04463530095857207 0.2933529441325594 -0.29701716435295744 0.2933529441325592 -0.29701716435295705 -0.6137415709339719 0.04463530095857199
277.5919732441472 -0.6140583195266077 0.0456801262117021 0.29087121759004253 -0.29960017078080253 0.29087121759004236 -0.2996001707808025 -0.6140583195266078 0.045680126211702116
280.6020066889632 -0.6143667252918532 0.0467384933851505 0.28836916678121743 -0.30216407487316366 0.2883691667812176 -0.30216407487316393 -0.6143667252918533 0.0467384933851505
283.61204013377926 -0.6146664940299198 0.04781033091893559 0.28584692743110235 -0.30470878774677096 0.28584692743110257 -0.30470878774677135 -0.6146664940299199 0.047810330918935606
286.6220735785953 -0.6149573321926602 0.04889556218037365 0.2833046334397895 -0.3072342218324791 0.28330463343978923 -0.30723422183247884 -0.6149573321926599 0.04889556218037355
289.6321070234114 -0.615238946949795 0.04999410547991477 0.2807424168498358 -0.3097402907923364 0.280742416849836 -0.30974029079233617 -0.615238946949795 0.04999410547991477
292.6421404682274 -0.6155110462542424 0.051105874087254116 0.2781604078159217 -0.31222690943565645 0.27816040781592194 -0.3122269094356566 -0.6155110462542426 0.0511058740872542
295.6521739130435 -0.6157733389065687 0.05223077624766838 0.27555873457679564 -0.31469399363414524 0.27555873457679575 -0.3146939936341453 -0.6157733389065687 0.05223077624766828
298.6622073578595 -0.6160255346185843 0.05336871519853845 0.27293752342951905 -0.3171414602361215 0.27293752342951855 -0.31714146023612094 -0.6160255346185842 0.05336871519853838
301.6722408026756 -0.616267344076113 0.0545195891860116 0.27029689870603657 -0.31956922697989515 0.2702968987060366 -0.31956922697989515 -0.6162673440761129 0.054519589186011644
304.6822742474916 -0.6164984790009597 0.05568329148176099 0.26763698275208536 -0.32197721240634797 0.2676369827520853 -0.32197721240634797 -0.6164984790009596 0.05568329148176106
307.69230769230774 -0.6167186522121043 0.056859710399802435 0.2649578959084548 -0.3243653357707639 0.264957895908455 -0.3243653357707642 -0.6167186522121041 0.05685971039980235
310.7023411371237 -0.6169275776861599 0.05804872931332848 0.2622597564946211 -0.32673351695396335 0.26225975649462085 -0.32673351695396297 -0.61692757768616 0.058048729313328454
313.7123745819398 -0.6171249706171157 0.05925022667152258 0.25954268079476167 -0.32908167637278574 0.25954268079476145 -0.3290816763727854 -0.6171249706171158 0.059250226671522604
316.72240802675583 -0.6173105474754128 0.06046407601631407 0.2568067830461722 -0.3314097348899774 0.25680678304617194 -0.331409734889977 -0.6173105474754129 0.06046407601631404
319.7324414715719 -0.6174840260663766 0.0616901459990411 0.2540521754300901 -0.3337176137235227 0.2540521754300903 -0.33371761372352304 -0.6174840260663766 0.06169014599904106
322.7424749163879 -0.6176451255880487 0.0629283003969873 0.25127896806494615 -0.3360052343554778 0.251278968064946 -0.33600523435547747 -0.6176451255880487 0.06292830039698726
325.75250836120404 -0.6177935666884578 0.06417839812975865 0.24848726900204715 -0.338272518440345 0.24848726900204715 -0.3382725184403452 -0.6177935666884579 0.06417839812975862
328.76254180602 -0.6179290715223666 0.06544029327547182 0.24567718422371118 -0.3405193877130475 0.24567718422371146 -0.340519387713048 -0.6179290715223666 0.06544029327547184
331.77257525083616 -0.6180513638075366 0.06671383508672377 0.24284881764385544 -0.3427457638965397 0.24284881764385566 -0.34274576389654 -0.6180513638075363 0.06671383508672374
334.78260869565213 -0.6181601688805551 0.06799886800631587 0.24000227111105563 -0.34495156860911064 0.24000227111105574 -0.3449515686091108 -0.6181601688805554 0.06799886800631592
337.7926421404682 -0.6182552137522712 0.06929523168270749 0.23713764441408358 -0.347136723271423 0.23713764441408347 -0.347136723271423 -0.6182552137522713 0.06929523168270743
340.80267558528425 -0.6183362271628731 0.07060276098517498 0.23425503528993302 -0.3493011490133351 0.23425503528993297 -0.3493011490133352 -0.6183362271628733 0.07060276098517505
343.81270903010034 -0.6184029396366731 0.071921286018655 0.2313545394343435 -0.3514447665805573 0.2313545394343436 -0.35144476658055745 -0.618402939636673 0.07192128601865501
346.8227424749163 -0.6184550835366307 0.07325063213825027 0.22843625051483063 -0.3535674962411802 0.22843625051483052 -0.3535674962411803 -0.6184550835366305 0.07325063213825019
349.83277591973246 -0.618492393118669 0.074590619963383 0.22550026018623243 -0.3556692576921339 0.22550026018623243 -0.3556692576921339 -0.6184923931186689 0.07459061996338297
352.84280936454843 -0.6185146045858378 0.07594106539157744 0.222546658108782 -0.35774996996561303 0.2225466581087821 -0.3577499699656133 -0.6185146045858383 0.07594106539157737
355.8528428093646 -0.618521456142366 0.07730177961185838 0.21957553196870955 -0.35980955133552484 0.2195755319687096 -0.3598095513355251 -0.6185214561423658 0.0773017796118583
358.86287625418055 -0.6185126880476584 0.07867256911775374 0.2165869675013918 -0.361847919223998 0.21658696750139195 -0.3618479192239985 -0.6185126880476585 0.0786725691177537
361.87290969899664 -0.618488042670294 0.08005323571989079 0.21358104851704318 -0.3638649901080031 0.2135810485170433 -0.36386499010800333 -0.618488042670294 0.08005323571989072
364.88294314381267 -0.6184472645420689 0.08144357655817887 0.21055785692897455 -0.36586067942613376 0.2105578569289747 -0.365860679426134 -0.618447264542069 0.08144357655817898
367.89297658862876 -0.6183901004121481 0.08284338411357366 0.20751747278440855 -0.3678349014855893 0.2075174727844085 -0.3678349014855891 -0.6183901004121477 0.08284338411357367
370.90301003344484 -0.6183162993013719 0.08425244621941572 0.20445997429787655 -0.36978756936941115 0.20445997429787643 -0.36978756936941115 -0.6183162993013718 0.08425244621941562
373.9130434782609 -0.6182256125567777 0.08567054607234714 0.20138543788719246 -0.37171859484401804 0.20138543788719251 -0.3717185948440183 -0.6182256125567775 0.08567054607234709
376.9230769230769 -0.6181177939063938 0.08709746224280421 0.1982939382120201 -0.37362788826708593 0.19829393821202004 -0.3736278882670858 -0.6181177939063939 0.08709746224280426
379.933110367893 -0.6179925995143541 0.08853296868508959 0.1951855482150359 -0.37551535849582335 0.19518554821503592 -0.3755153584958234 -0.6179925995143544 0.0885329686850897
382.943143812709 -0.6178497880363996 0.08997683474702915 0.19206033916569956 -0.37738091279568803 0.19206033916569976 -0.3773809127956883 -0.6178497880363997 0.08997683474702926
385.9531772575251 -0.6176891206758184 0.0914288251792234 0.1889183807066382 -0.3792244567495951 0.18891838070663816 -0.3792244567495949 -0.617689120675818 0.09142882517922349
388.96321070234114 -0.6175103612398839 0.09288870014390102 0.1857597409026514 -0.38104589416766055 0.18575974090265152 -0.38104589416766044 -0.6175103612398839 0.09288870014390099
391.9732441471572 -0.6173132761968476 0.09435621522338855 0.18258448629234827 -0.3828451269975394 0.1825844862923483 -0.38284512699753953 -0.6173132761968475 0.09435621522338858
394.98327759197326 -0.6170976347335451 0.09583112142821153 0.1793926819424213 -0.384622055235398 0.17939268194242117 -0.38462205523539766 -0.6170976347335454 0.09583112142821154
397.9933110367893 -0.6168632088136751 0.0973131652048431 0.1761843915045662 -0.3863765768375721 0.1761843915045662 -0.386376576837572 -0.6168632088136753 0.09731316520484322
401.0033444816053 -0.6166097732368073 0.0988020884431221 0.17295967727505931 -0.3881085876329746 0.17295967727505931 -0.3881085876329745 -0.6166097732368074 0.09880208844312222
404.0133779264214 -0.6163371056981795 0.10029762848336075 0.16971860025699184 -0.38981798123628436 0.16971860025699176 -0.3898179812362842 -0.6163371056981793 0.10029762848336077
407.02341137123744 -0.6160449868493413 0.10179951812316979 0.16646122022518073 -0.3915046489619875 0.16646122022518067 -0.3915046489619875 -0.6160449868493414 0.10179951812316988
410.03344481605353 -0.615733200359704 0.10330748562402567 0.1631875957937544 -0.3931684797393117 0.1631875957937543 -0.3931684797393116 -0.615733200359704 0.10330748562402561
413.04347826086956 -0.6154015329790502 0.10482125471761244 0.1598977844864261 -0.39480936002811473 0.15989778448642616 -0.3948093600281149 -0.6154015329790504 0.10482125471761247
416.0535117056856 -0.6150497746010702 0.10634054461197037 0.1565918428094644 -0.3964271737357841 0.15659184280946448 -0.3964271737357845 -0.6150497746010705 0.10634054461197051
419.0635451505017 -0.6146777183279708 0.1078650699974868 0.1532698263273614 -0.3980218021351924 0.1532698263273615 -0.39802180213519234 -0.614677718327971 0.10786506999748675
422.0735785953177 -0.6142851605362254 0.10939454105276601 0.14993178974121676 -0.3995931237837831 0.1499317897412169 -0.39959312378378364 -0.6142851605362254 0.10939454105276597
425.0836120401338 -0.6138719009435135 0.11092866345042375 0.14657778696983717 -0.4011410144438355 0.14657778696983695 -0.401141014443835 -0.6138719009435133 0.11092866345042371
428.09364548494983 -0.6134377426769096 0.11246713836284385 0.1432078712335584 -0.4026653470039609 0.14320787123355846 -0.4026653470039611 -0.6134377426769096 0.1124671383628438
431.10367892976586 -0.6129824923423762 0.11400966246794829 0.1398220951408075 -0.404165991401918 0.13982209514080757 -0.4041659914019182 -0.612982492342376 0.1140096624679483
