! Created with skrf (http://scikit-rf.org).
# MHz S RI R 376.73031366686166 
!freq ReS11 ImS11 ReS21 ImS21 ReS12 ImS12 ReS22 ImS22
100.0 -0.6643988772206411 -0.0489711184022711 0.3352422906135047 -0.06996169533950118 0.3352422906135046 -0.06996169533950115 -0.6643988772206408 -0.04897111840227107
103.01003344481606 -0.6650588779480289 -0.05031919486217838 0.3345602781112914 -0.07194362066810676 0.3345602781112914 -0.07194362066810678 -0.6650588779480288 -0.05031919486217837
106.0200668896321 -0.6657357498815044 -0.05165658020826258 0.3338607314360271 -0.07391503547501257 0.3338607314360272 -0.07391503547501263 -0.6657357498815046 -0.05165658020826261
109.03010033444816 -0.6664292731789636 -0.05298303402999156 0.3331438695273536 -0.07587570468538271 0.3331438695273539 -0.07587570468538285 -0.6664292731789636 -0.052983034029991605
112.04013377926421 -0.6671392239519925 -0.054298321496581134 0.3324099153443961 -0.07782539880921284 0.33240991534439585 -0.07782539880921273 -0.6671392239519925 -0.05429832149658112
115.05016722408027 -0.6678653744329968 -0.055602213431743625 0.33165909569856433 -0.07976389401622469 0.33165909569856417 -0.07976389401622459 -0.6678653744329967 -0.05560221343174361
118.06020066889631 -0.6686074931435421 -0.05689448638272551 0.3308916410851374 -0.08169097220505118 0.33089164108513763 -0.08169097220505132 -0.668607493143542 -0.05689448638272562
121.07023411371237 -0.6693653450637034 -0.058174922683643715 0.3301077855138373 -0.08360642106671909 0.3301077855138373 -0.08360642106671912 -0.6693653450637032 -0.058174922683643784
124.08026755852842 -0.6701386918022032 -0.059443310513117076 0.3293077663386142 -0.08551003414242819 0.3293077663386141 -0.08551003414242818 -0.6701386918022032 -0.05944331051311724
127.09030100334448 -0.6709272917671256 -0.060699443946224646 0.32849182408685146 -0.08740161087565568 0.3284918240868517 -0.08740161087565576 -0.6709272917671256 -0.060699443946224715
130.10033444816054 -0.6717309003370019 -0.06194312300080408 0.327660202288197 -0.08928095665860421 0.327660202288197 -0.08928095665860421 -0.671730900337002 -0.06194312300080411
133.11036789297657 -0.6725492700320528 -0.06317415367814276 0.3268131473032363 -0.09114788287303827 0.3268131473032366 -0.09114788287303839 -0.6725492700320531 -0.06317415367814276
136.12040133779263 -0.673382150685392 -0.0643923479980889 0.32595090815220373 -0.09300220692554546 0.32595090815220407 -0.09300220692554552 -0.6733821506853922 -0.06439234799808892
139.1304347826087 -0.6742292896139885 -0.06559752402864245 0.325073736343929 -0.0948437522772737 0.32507373634392944 -0.09484375227727375 -0.6742292896139886 -0.06559752402864244
142.14046822742475 -0.6750904317891924 -0.06678950591008456 0.32418188570522033 -0.09667234846821054 0.32418188570522066 -0.0966723484682106 -0.6750904317891926 -0.0667895059100846
145.1505016722408 -0.6759653200066396 -0.06796812387371534 0.32327561221086903 -0.09848783113606872 0.32327561221086865 -0.09848783113606857 -0.6759653200066398 -0.06796812387371526
148.16053511705684 -0.6768536950553377 -0.06913321425525705 0.32235517381446377 -0.10029004202983866 0.32235517381446377 -0.10029004202983872 -0.6768536950553381 -0.06913321425525715
151.1705685618729 -0.6777552958857672 -0.07028461950302949 0.32142083028019475 -0.10207882901811254 0.3214208302801949 -0.10207882901811265 -0.6777552958857673 -0.07028461950302943
154.18060200668896 -0.678669859776811 -0.07142218818095657 0.32047284301582313 -0.10385404609224076 0.3204728430158235 -0.10385404609224093 -0.678669859776811 -0.07142218818095662
157.19063545150502 -0.6795971225013502 -0.0725457749665171 0.31951147490698145 -0.10561555336443165 0.3195114749069819 -0.10561555336443178 -0.6795971225013506 -0.07254577496651719
160.20066889632105 -0.6805368184903564 -0.07365524064372789 0.31853699015297937 -0.10736321706088493 0.3185369901529795 -0.10736321706088489 -0.6805368184903564 -0.07365524064372786
163.2107023411371 -0.6814886809953254 -0.07475045209126359 0.31754965410425995 -0.10909690951006164 0.31754965410425967 -0.10909690951006162 -0.6814886809953253 -0.07475045209126359
166.22073578595317 -0.6824524422489003 -0.07583128226582425 0.3165497331016686 -0.11081650912620178 0.316549733101669 -0.11081650912620179 -0.6824524422489007 -0.07583128226582433
169.23076923076923 -0.6834278336235357 -0.07689761018086577 0.31553749431767897 -0.11252190038820553 0.3155374943176793 -0.11252190038820557 -0.683427833623536 -0.0768976101808658
172.24080267558526 -0.6844145857880648 -0.07794932088080475 0.31451320559970875 -0.1142129738139892 0.3145132055997088 -0.11421297381398933 -0.6844145857880648 -0.07794932088080468
175.25083612040132 -0.6854124288620358 -0.07898630541082666 0.3134771353156704 -0.1158896259304445 0.3134771353156703 -0.11588962593044448 -0.6854124288620357 -0.07898630541082664
178.26086956521738 -0.6864210925676901 -0.0800084607824161 0.3124295522018702 -0.11755175923911988 0.3124295522018702 -0.11755175923911985 -0.6864210925676906 -0.08000846078241615
181.27090301003344 -0.6874403063794644 -0.08101568993474709 0.31137072521338965 -0.11919928217776316 0.3113707252133897 -0.11919928217776318 -0.6874403063794644 -0.08101568993474695
184.2809364548495 -0.6884697996708952 -0.0820079016920549 0.3103009233770541 -0.12083210907784506 0.31030092337705417 -0.1208321090778451 -0.688469799670895 -0.08200790169205488
187.29096989966553 -0.689509301858834 -0.08298501071713293 0.3092204156470947 -0.12245016011820853 0.3092204156470947 -0.1224501601182086 -0.6895093018588334 -0.08298501071713292
190.3010033444816 -0.6905585425448535 -0.08394693746108561 0.3081294707636113 -0.12405336127497438 0.30812947076361097 -0.12405336127497422 -0.6905585425448534 -0.08394693746108552
193.31103678929765 -0.6916172516537651 -0.0848936081094803 0.30702835711392473 -0.12564164426784566 0.3070283571139249 -0.12564164426784566 -0.6916172516537651 -0.08489360810948027
196.3210702341137 -0.6926851595691592 -0.08582495452503723 0.30591734259690667 -0.12721494650295154 0.3059173425969067 -0.12721494650295162 -0.6926851595691591 -0.08582495452503727
199.33110367892974 -0.6937619972658785 -0.08674091418700049 0.3047966944903667 -0.1287732110123717 0.30479669449036645 -0.12877321101237163 -0.6937619972658783 -0.08674091418700047
202.3411371237458 -0.6948474964393606 -0.08764143012733207 0.3036666793215734 -0.13031638639048354 0.3036666793215734 -0.1303163863904835 -0.6948474964393606 -0.08764143012733211
205.35117056856186 -0.6959413896317791 -0.08852645086387467 0.3025275627409733 -0.13184442672728014 0.302527562740973 -0.13184442672727995 -0.6959413896317789 -0.08852645086387459
208.36120401337791 -0.6970434103549196 -0.08939593033062686 0.3013796093991704 -0.1333572915387995 0.30137960939917036 -0.13335729153879944 -0.6970434103549201 -0.0893959303306268
211.37123745819395 -0.698153293209741 -0.09024982780527543 0.30022308282722115 -0.13485494569481182 0.3002230828272211 -0.1348549456948118 -0.6981532932097413 -0.09024982780527548
214.38127090301 -0.6992707740025679 -0.09108810783413186 0.2990582453202917 -0.13633735934391092 0.2990582453202919 -0.136337359343911 -0.6992707740025679 -0.09108810783413174
217.39130434782606 -0.7003955898578783 -0.09191074015461129 0.2978853578247217 -0.13780450783614961 0.29788535782472175 -0.13780450783614967 -0.7003955898578783 -0.0919107401546114
220.40133779264212 -0.7015274793276469 -0.09271769961540753 0.296704679828526 -0.1392563716433691 0.29670467982852594 -0.13925637164336913 -0.7015274793276473 -0.09271769961540756
223.41137123745816 -0.7026661824972128 -0.09350896609449713 0.29551646925537245 -0.14069293627736087 0.2955164692553722 -0.14069293627736074 -0.7026661824972128 -0.09350896609449703
226.42140468227421 -0.7038114410876484 -0.09428452441512145 0.29432098236205273 -0.142114192206004 0.2943209823620526 -0.14211419220600402 -0.7038114410876483 -0.0942845244151216
229.43143812709027 -0.7049629985546167 -0.09504436425988436 0.29311847363946475 -0.14352013476752082 0.2931184736394649 -0.14352013476752085 -0.7049629985546166 -0.09504436425988451
232.44147157190633 -0.7061206001836916 -0.09578848008310593 0.2919091957171304 -0.14491076408298717 0.2919091957171305 -0.14491076408298717 -0.7061206001836916 -0.09578848008310596
235.45150501672242 -0.7072839931821427 -0.09651687102156761 0.29069339927123994 -0.1462860849672356 0.29069339927124016 -0.14628608496723572 -0.707283993182143 -0.0965168710215676
238.46153846153845 -0.7084529267671813 -0.09722954080378853 0.28947133293624044 -0.14764610683828974 0.2894713329362408 -0.14764610683828988 -0.7084529267671812 -0.0972295408037886
241.4715719063545 -0.7096271522506635 -0.09792649765796418 0.2882432432199591 -0.14899084362546092 0.28824324321995914 -0.1489908436254609 -0.7096271522506634 -0.09792649765796409
244.48160535117057 -0.7108064231202662 -0.0986077542186944 0.2870093744222521 -0.15032031367623538 0.28700937442225216 -0.1503203136762354 -0.7108064231202662 -0.09860775421869446
247.49163879598663 -0.7119904951171407 -0.09927332743264036 0.28576996855717474 -0.1516345396620901 0.2857699685571745 -0.15163453966209003 -0.7119904951171407 -0.09927332743264042
250.50167224080266 -0.7131791263100632 -0.09992323846322558 0.28452526527864896 -0.15293354848335355 0.28452526527864924 -0.15293354848335372 -0.7131791263100633 -0.09992323846322565
253.51170568561872 -0.7143720771661014 -0.10055751259451429 0.2832755018096156 -0.15421737117324388 0.2832755018096153 -0.15421737117324374 -0.714372077166101 -0.10055751259451431
256.52173913043475 -0.7155691106178252 -0.10117617913437872 0.2820209128746347 -0.1554860428011962 0.2820209128746344 -0.15548604280119593 -0.7155691106178252 -0.10117617913437868
259.53177257525084 -0.7167699921270849 -0.10177927131708253 0.2807617306359209 -0.15673960237560705 0.280761730635921 -0.1567396023756071 -0.7167699921270851 -0.1017792713170826
262.5418060200669 -0.7179744897453924 -0.10236682620539127 0.2794981846327709 -0.15797809274610625 0.2794981846327708 -0.15797809274610625 -0.7179744897453922 -0.10236682620539132
265.55183946488296 -0.7191823741709392 -0.10293888459231877 0.27823050172434693 -0.15920156050546366 0.278230501724347 -0.15920156050546366 -0.7191823741709391 -0.1029388845923188
268.561872909699 -0.7203934188022931 -0.10349549090262555 0.276958906035786 -0.16041005589125046 0.27695890603578605 -0.1604100558912506 -0.7203934188022932 -0.10349549090262557
271.5719063545151 -0.7216073997888144 -0.10403669309416698 0.27568361890758236 -0.16160363268734967 0.27568361890758253 -0.16160363268734973 -0.7216073997888145 -0.10403669309416695
274.58193979933105 -0.7228240960778314 -0.10456254255920194 0.2744048588482062 -0.16278234812542614 0.2744048588482062 -0.1627823481254262 -0.7228240960778314 -0.10456254255920183
277.5919732441472 -0.7240432894586352 -0.10507309402575309 0.27312284148990523 -0.16394626278645205 0.273122841489905 -0.16394626278645183 -0.7240432894586353 -0.10507309402575303
280.6020066889632 -0.7252647646033311 -0.10556840545911854 0.2718377795476401 -0.16509544050237956 0.27183777954764027 -0.16509544050237962 -0.7252647646033313 -0.10556840545911857
283.61204013377926 -0.7264883091046089 -0.10604853796362743 0.2705498827811044 -0.1662299482580628 0.27054988278110437 -0.1662299482580628 -0.726488309104609 -0.10604853796362732
286.6220735785953 -0.7277137135104829 -0.10651355568472537 0.2692593579597671 -0.1673498560935062 0.2692593579597668 -0.16734985609350608 -0.7277137135104828 -0.10651355568472531
289.6321070234114 -0.7289407713560576 -0.10696352571147849 0.2679664088308861 -0.16845523700653314 0.2679664088308861 -0.16845523700653312 -0.7289407713560575 -0.1069635257114785
292.6421404682274 -0.7301692791923874 -0.10739851797957323 0.2666712360904318 -0.1695461668559521 0.266671236090432 -0.1695461668559522 -0.7301692791923873 -0.10739851797957325
295.6521739130435 -0.73139903661247 -0.10781860517489607 0.2653740373568603 -0.17062272426530076 0.2653740373568605 -0.17062272426530084 -0.7313990366124699 -0.10781860517489614
298.6622073578595 -0.7326298462744664 -0.10822386263776267 0.2640750071476712 -0.17168499052724218 0.264075007147671 -0.1716849905272421 -0.7326298462744665 -0.1082238626377626
301.6722408026756 -0.7338615139221821 -0.10861436826787098 0.2627743368586913 -0.1727330495086838 0.2627743368586914 -0.17273304950868384 -0.7338615139221824 -0.10861436826787119
304.6822742474916 -0.735093848402891 -0.10899020243004545 0.2614722147460169 -0.17376698755668848 0.2614722147460169 -0.17376698755668837 -0.7350938484028913 -0.10899020243004555
307.69230769230774 -0.7363266616825622 -0.10935144786083577 0.2601688259105461 -0.17478689340524103 0.2601688259105459 -0.17478689340524092 -0.736326661682562 -0.10935144786083577
310.7023411371237 -0.7375597688585617 -0.10969818957603367 0.25886435228503873 -0.17579285808293282 0.2588643522850387 -0.1757928580829328 -0.7375597688585614 -0.10969818957603363
313.7123745819398 -0.738792988169885 -0.11003051477916255 0.257558972623634 -0.17678497482161928 0.2575589726236341 -0.1767849748216193 -0.7387929881698854 -0.1100305147791626
316.72240802675583 -0.7400261410050063 -0.11034851277099873 0.2562528624937573 -0.17776333896610966 0.25625286249375734 -0.17776333896610969 -0.7400261410050064 -0.11034851277099869
319.7324414715719 -0.7412590519073934 -0.11065227486016953 0.2549461942703489 -0.17872804788493518 0.2549461942703489 -0.17872804788493518 -0.7412590519073937 -0.1106522748601696
322.7424749163879 -0.7424915485787758 -0.11094189427488303 0.25363913713234315 -0.17967920088224706 0.25363913713234315 -0.17967920088224712 -0.7424915485787754 -0.11094189427488302
325.75250836120404 -0.7437234618802195 -0.11121746607582948 0.25233185706133304 -0.1806168991108891 0.25233185706133315 -0.1806168991108892 -0.7437234618802194 -0.11121746607582951
328.76254180602 -0.7449546258310913 -0.1114790870702976 0.2510245168423436 -0.18154124548668374 0.2510245168423438 -0.18154124548668385 -0.7449546258310916 -0.11147908707029766
331.77257525083616 -0.7461848776059705 -0.11172685572754511 0.24971727606665267 -0.18245234460397367 0.2497172760666528 -0.18245234460397367 -0.7461848776059705 -0.11172685572754515
334.78260869565213 -0.7474140575295877 -0.11196087209546154 0.2484102911365852 -0.1833503026524562 0.24841029113658525 -0.18335030265245614 -0.7474140575295879 -0.1119608720954616
337.7926421404682 -0.7486420090698501 -0.11218123771854911 0.24710371527221012 -0.1842352273353357 0.24710371527220984 -0.18423522733533557 -0.74864200906985 -0.11218123771854922
340.80267558528425 -0.7498685788290321 -0.11238805555726136 0.245797698519876 -0.18510722778883457 0.2457976985198762 -0.18510722778883473 -0.7498685788290325 -0.11238805555726145
343.81270903010034 -0.7510936165331891 -0.11258142990871867 0.24449238776251447 -0.18596641450308193 0.2444923877625146 -0.18596641450308196 -0.751093616533189 -0.11258142990871861
346.8227424749163 -0.7523169750198713 -0.1127614663288324 0.24318792673164213 -0.18681289924441022 0.24318792673164208 -0.18681289924441016 -0.7523169750198712 -0.11276146632883241
349.83277591973246 -0.7535385102242018 -0.11292827155585164 0.24188445602099268 -0.18764679497907588 0.2418844560209927 -0.18764679497907596 -0.7535385102242018 -0.11292827155585189
352.84280936454843 -0.7547580811633824 -0.1130819534353623 0.24058211310172078 -0.18846821579843276 0.24058211310172056 -0.18846821579843265 -0.7547580811633823 -0.1130819534353624
355.8528428093646 -0.7559755499196996 -0.11322262084674549 0.2392810323390979 -0.18927727684556478 0.239281032339098 -0.1892772768455649 -0.7559755499196996 -0.11322262084674552
358.86287625418055 -0.7571907816220901 -0.1133503836311184 0.2379813450106478 -0.1900740942434027 0.23798134501064758 -0.1900740942434024 -0.7571907816220901 -0.11335038363111836
361.87290969899664 -0.758403644426332 -0.11346535252076285 0.23668317932564845 -0.19085878502432593 0.23668317932564828 -0.1908587850243259 -0.758403644426332 -0.1134653525207629
364.88294314381267 -0.7596140094939301 -0.1135676390700621 0.23538666044594253 -0.19163146706127807 0.23538666044594236 -0.19163146706127795 -0.7596140094939301 -0.11356763907006212
367.89297658862876 -0.7608217509697508 -0.11365735558793807 0.23409191050798703 -0.19239225900037857 0.23409191050798714 -0.19239225900037865 -0.760821750969751 -0.11365735558793813
370.90301003344484 -0.762026745958468 -0.11373461507181341 0.23279904864609183 -0.19314128019506246 0.23279904864609202 -0.1931412801950627 -0.7620267459584681 -0.11373461507181348
373.9130434782609 -0.7632288744998897 -0.11379953114309029 0.23150819101677264 -0.19387865064173634 0.23150819101677267 -0.19387865064173643 -0.7632288744998897 -0.11379953114309023
376.9230769230769 -0.7644280195432153 -0.11385221798415013 0.23021945082417009 -0.19460449091695586 0.2302194508241702 -0.19460449091695592 -0.7644280195432156 -0.11385221798415024
379.933110367893 -0.7656240669202817 -0.11389279027688029 0.22893293834647135 -0.19531892211613006 0.22893293834647135 -0.1953189221161301 -0.765624066920282 -0.11389279027688028
382.943143812709 -0.7668169053178662 -0.11392136314271961 0.2276487609632778 -0.1960220657937468 0.227648760963278 -0.19602206579374692 -0.7668169053178662 -0.11392136314271972
385.9531772575251 -0.7680064262490857 -0.11393805208422457 0.22636702318386512 -0.1967140439051169 0.22636702318386528 -0.19671404390511696 -0.7680064262490857 -0.11393805208422458
388.96321070234114 -0.769192524023964 -0.1139429729281504 0.2250878266762779 -0.19739497874963552 0.22508782667627783 -0.1973949787496355 -0.7691925240239641 -0.11394297292815043
391.9732441471572 -0.7703750957192043 -0.11393624177003821 0.22381127029720582 -0.19806499291554894 0.2238112702972058 -0.198064992915549 -0.7703750957192043 -0.11393624177003828
394.98327759197326 -0.7715540411472321 -0.11391797492030835 0.2225374501225935 -0.19872420922622858 0.22253745012259338 -0.19872420922622852 -0.7715540411472318 -0.11391797492030838
397.9933110367893 -0.7727292628245532 -0.11388828885184245 0.22126645947892704 -0.19937275068793384 0.22126645947892698 -0.19937275068793386 -0.7727292628245532 -0.11388828885184243
401.0033444816053 -0.7739006659394745 -0.11384730014904854 0.2199983889751505 -0.20001074043905928 0.21999838897515056 -0.20001074043905917 -0.7739006659394747 -0.11384730014904855
404.0133779264214 -0.7750681583192424 -0.11379512545840108 0.2187333265351667 -0.20063830170085473 0.2187333265351665 -0.2006383017008546 -0.7750681583192424 -0.11379512545840106
407.02341137123744 -0.7762316503966404 -0.11373188144043626 0.21747135743086818 -0.20125555772960468 0.2174713574308686 -0.20125555772960504 -0.7762316503966405 -0.11373188144043639
410.03344481605353 -0.7773910551760911 -0.11365768472319637 0.2162125643156622 -0.20186263177025507 0.21621256431566255 -0.2018626317702552 -0.777391055176091 -0.11365768472319644
413.04347826086956 -0.778546288199311 -0.11357265185710459 0.21495702725843685 -0.20245964701146993 0.2149570272584366 -0.2024596470114697 -0.7785462881993113 -0.11357265185710458
416.0535117056856 -0.779697267510559 -0.11347689927125464 0.2137048237779283 -0.20304672654210534 0.2137048237779283 -0.20304672654210537 -0.7796972675105587 -0.11347689927125466
419.0635451505017 -0.7808439136215195 -0.11337054323110524 0.21245602887745227 -0.20362399330908884 0.21245602887745227 -0.20362399330908879 -0.7808439136215194 -0.11337054323110529
422.0735785953177 -0.781986149475859 -0.11325369979755254 0.21121071507995098 -0.2041915700766744 0.21121071507995104 -0.20419157007667443 -0.7819861494758593 -0.11325369979755252
425.0836120401338 -0.7831239004135013 -0.11312648478737129 0.2099689524633216 -0.20474957938707003 0.20996895246332153 -0.20474957938706992 -0.7831239004135016 -0.11312648478737133
428.09364548494983 -0.7842570941346518 -0.11298901373500314 0.20873080869598828 -0.20529814352241005 0.20873080869598826 -0.20529814352241 -0.7842570941346517 -0.11298901373500315
