! Created with skrf (http://scikit-rf.org).
# MHz S RI R 376.73031366686166 
!freq ReS11 ImS11 ReS21 ImS21 ReS12 ImS12 ReS22 ImS22
100.0 -0.2901884863691673 -0.09733256299474281 0.7095639692632091 -0.11830344093323773 0.7095639692632094 -0.11830344093323786 -0.29018848636916744 -0.09733256299474288
103.01003344481606 -0.2911759594759765 -0.10010841172298457 0.7085613477362899 -0.12171130286320055 0.7085613477362902 -0.12171130286320064 -0.29117595947597646 -0.10010841172298456
106.0200668896321 -0.29218993650851594 -0.10287101032688871 0.7075317704449038 -0.12510598436528025 0.7075317704449033 -0.12510598436528017 -0.292189936508516 -0.10287101032688871
109.03010033444816 -0.2932301859933147 -0.10562003402634021 0.7064754686316671 -0.1284871627047591 0.7064754686316673 -0.128487162704759 -0.29323018599331446 -0.1056200340263402
112.04013377926421 -0.2942964714608375 -0.1083551630464677 0.7053926785285283 -0.13185452015292562 0.7053926785285286 -0.13185452015292556 -0.2942964714608375 -0.1083551630464677
115.05016722408027 -0.2953885515737751 -0.11107608270798651 0.7042836412284722 -0.1352077440774389 0.7042836412284715 -0.13520774407743882 -0.29538855157377525 -0.11107608270798644
118.06020066889631 -0.2965061802571122 -0.11378248351377102 0.7031486025554443 -0.13854652702892323 0.7031486025554448 -0.1385465270289233 -0.2965061802571122 -0.11378248351377106
121.07023411371237 -0.297649106829841 -0.11647406123159727 0.7019878129326298 -0.14187056682373178 0.7019878129326302 -0.14187056682373198 -0.29764910682984097 -0.11647406123159727
124.08026755852842 -0.29881707613819974 -0.11915051697305405 0.7008015272492066 -0.14517956662288053 0.7008015272492062 -0.1451795666228806 -0.29881707613819986 -0.11915051697305405
127.09030100334448 -0.3000098286903081 -0.12181155726858788 0.699590004725703 -0.1484732350071141 0.699590004725703 -0.1484732350071141 -0.300009828690308 -0.12181155726858782
130.10033444816054 -0.30122710079207077 -0.12445689413865416 0.6983535087780867 -0.1517512860480792 0.6983535087780864 -0.1517512860480792 -0.3012271007920706 -0.12445689413865417
133.11036789297657 -0.3024686246842344 -0.1270862451609695 0.6970923068806975 -0.15501343937559878 0.6970923068806975 -0.1550134393755989 -0.3024686246842346 -0.1270862451609696
136.12040133779263 -0.3037341286804586 -0.12969933353385707 0.6958066704281692 -0.15825942024103895 0.6958066704281696 -0.1582594202410391 -0.3037341286804588 -0.12969933353385704
139.1304347826087 -0.30502333730628706 -0.13229588813566606 0.6944968745964512 -0.1614889595767511 0.6944968745964513 -0.16148895957675108 -0.30502333730628717 -0.13229588813566595
142.14046822742475 -0.3063359714388891 -0.13487564358027382 0.6931631982030539 -0.1647017940515947 0.6931631982030538 -0.16470179405159463 -0.306335971438889 -0.13487564358027376
145.1505016722408 -0.3076717484474529 -0.1374383402686721 0.6918059235666512 -0.16789766612254656 0.6918059235666506 -0.16789766612254634 -0.307671748447453 -0.13743834026867216
148.16053511705684 -0.30903038233410185 -0.1399837244366397 0.6904253363661504 -0.17107632408239415 0.6904253363661502 -0.17107632408239415 -0.309030382334102 -0.13998372443663973
151.1705685618729 -0.31041158387522017 -0.14251154819851292 0.6890217254993611 -0.17423752210352977 0.6890217254993614 -0.1742375221035297 -0.3104115838752204 -0.14251154819851264
154.18060200668896 -0.3118150607630657 -0.14502156958707513 0.6875953829413713 -0.17738102027786065 0.6875953829413715 -0.1773810202778606 -0.3118150607630658 -0.14502156958707518
157.19063545150502 -0.31324051774755063 -0.14751355258957277 0.6861466036027543 -0.18050658465284666 0.6861466036027545 -0.1805065846528467 -0.31324051774755046 -0.14751355258957272
160.20066889632105 -0.31468765677806904 -0.14998726717989355 0.6846756851877349 -0.18361398726370215 0.6846756851877345 -0.18361398726370204 -0.3146876567780691 -0.14998726717989355
163.2107023411371 -0.3161561771452713 -0.1524424893469219 0.6831829280524014 -0.1867030061617713 0.6831829280524011 -0.18670300616177118 -0.31615617714527117 -0.1524424893469219
166.22073578595317 -0.3176457756226549 -0.15487900111910585 0.6816686350631066 -0.18977342543911835 0.6816686350631063 -0.18977342543911827 -0.31764577562265495 -0.15487900111910574
169.23076923076923 -0.3191561466078731 -0.1572965905852751 0.6801331114551477 -0.19282503524936812 0.6801331114551475 -0.192825035249368 -0.3191561466078731 -0.1572965905852753
172.24080267558526 -0.32068698226364517 -0.15969505191173483 0.678576664691844 -0.19585763182481952 0.6785766646918443 -0.19585763182481958 -0.3206869822636452 -0.15969505191173494
175.25083612040132 -0.3222379726581678 -0.16207418535568813 0.6769996043241167 -0.19887101748989292 0.6769996043241162 -0.19887101748989283 -0.3222379726581678 -0.16207418535568813
178.26086956521738 -0.32380880590491673 -0.16443379727501928 0.6754022418506719 -0.20186500067093355 0.6754022418506717 -0.20186500067093335 -0.3238088059049166 -0.16443379727501914
181.27090301003344 -0.3253991683017413 -0.16677370013450082 0.6737848905788995 -0.2048393959024413 0.6737848905788993 -0.20483939590244127 -0.32539916830174104 -0.16677370013450077
184.2809364548495 -0.32700874446915584 -0.16909371250844932 0.6721478654865667 -0.20779402382974865 0.6721478654865665 -0.20779402382974857 -0.32700874446915545 -0.16909371250844946
187.29096989966553 -0.32863721748771835 -0.1713936590799076 0.6704914830844262 -0.21072871120822462 0.6704914830844262 -0.21072871120822467 -0.3286372174877184 -0.17139365907990764
190.3010033444816 -0.33028426903441743 -0.17367337063640007 0.6688160612798226 -0.2136432908990528 0.6688160612798226 -0.21364329089905282 -0.33028426903441754 -0.1736733706364001
193.31103678929765 -0.331949579517967 -0.1759326840623036 0.6671219192413785 -0.21653760186162369 0.6671219192413789 -0.21653760186162374 -0.33194957951796694 -0.1759326840623035
196.3210702341137 -0.3336328282129225 -0.1781714423279237 0.6654093772648706 -0.2194114891426338 0.6654093772648706 -0.21941148914263378 -0.33363282821292234 -0.1781714423279237
199.33110367892974 -0.33533369339253527 -0.18038949447530916 0.663678756640358 -0.22226480386192185 0.6636787566403585 -0.22226480386192188 -0.33533369339253516 -0.18038949447530905
202.3411371237458 -0.33705185246025343 -0.18258669560089721 0.6619303795206744 -0.22509740319513652 0.6619303795206739 -0.2250974031951364 -0.33705185246025343 -0.18258669560089713
205.35117056856186 -0.33878698207980573 -0.1847629068350311 0.6601645687913247 -0.227909150353276 0.6601645687913246 -0.22790915035327597 -0.3387869820798054 -0.18476290683503113
208.36120401337791 -0.34053875830377606 -0.18691799531843326 0.6583816479419002 -0.2306999145591834 0.6583816479419001 -0.23069991455918337 -0.34053875830377583 -0.18691799531843328
211.37123745819395 -0.34230685670060007 -0.18905183417570853 0.6565819409390682 -0.23346957102107255 0.6565819409390672 -0.23346957102107235 -0.3423068567006002 -0.18905183417570856
214.38127090301 -0.34409095247991855 -0.19116430248593638 0.6547657721012031 -0.23621800090314185 0.6547657721012026 -0.2362180009031417 -0.34409095247991883 -0.1911643024859362
217.39130434782606 -0.345890720616213 -0.19325528525043512 0.6529334659747392 -0.23894509129336222 0.6529334659747393 -0.2389450912933624 -0.3458907206162129 -0.1932552852504354
220.40133779264212 -0.3477058359706588 -0.19532467335777282 0.6510853472123007 -0.241650735168508 0.6510853472123012 -0.24165073516850819 -0.3477058359706587 -0.19532467335777295
223.41137123745816 -0.34953597341114334 -0.19737236354609847 0.6492217404526708 -0.24433483135651296 0.6492217404526708 -0.24433483135651288 -0.3495359734111432 -0.19737236354609855
226.42140468227421 -0.3513808079303825 -0.19939825836287117 0.6473429702026572 -0.2469972844962198 0.6473429702026569 -0.24699728449621977 -0.3513808079303825 -0.19939825836287106
229.43143812709027 -0.35324001476207967 -0.2014022661220759 0.6454493607209236 -0.24963800499461988 0.6454493607209232 -0.24963800499461977 -0.3532400147620796 -0.2014022661220758
232.44147157190633 -0.35511326949508853 -0.20338430085897988 0.643541235903805 -0.2522569089816306 0.6435412359038055 -0.25225690898163095 -0.3551132694950884 -0.2033843008589798
235.45150501672242 -0.35700024818550663 -0.2053442822825508 0.6416189191732057 -0.25485391826253817 0.6416189191732048 -0.25485391826253784 -0.35700024818550646 -0.20534428228255083
238.46153846153845 -0.3589006274666857 -0.2072821357255733 0.6396827333665648 -0.2574289602681326 0.6396827333665651 -0.25742896026813283 -0.35890062746668566 -0.20728213572557347
241.4715719063545 -0.36081408465708714 -0.2091977920925785 0.6377330006289942 -0.25998196800266477 0.6377330006289953 -0.2599819680026652 -0.3608140846570874 -0.20919779209257858
244.48160535117057 -0.3627402978659599 -0.2110911878056525 0.6357700423075783 -0.2625128799896739 0.6357700423075782 -0.26251287998967393 -0.36274029786596 -0.2110911878056527
247.49163879598663 -0.36467894609680346 -0.2129622647482096 0.6337941788478951 -0.26502164021578384 0.6337941788478945 -0.2650216402157835 -0.36467894609680335 -0.21296226474820962
250.50167224080266 -0.3666297093485731 -0.2148109702068133 0.6318057296927952 -0.2675081980725472 0.6318057296927956 -0.26750819807254733 -0.3666297093485733 -0.21481097020681322
253.51170568561872 -0.3685922687146082 -0.21663725681113055 0.6298050131834599 -0.2699725082964229 0.62980501318346 -0.26997250829642294 -0.36859226871460804 -0.2166372568111305
256.52173913043475 -0.37056630647925015 -0.21844108247209282 0.62779234646276 -0.2724145309069583 0.6277923464627596 -0.27241453090695805 -0.37056630647925004 -0.21844108247209293
259.53177257525084 -0.3725515062121284 -0.22022241031835454 0.6257680453809569 -0.2748342311432703 0.6257680453809565 -0.27483423114327016 -0.3725515062121283 -0.22022241031835477
262.5418060200669 -0.37454755286008745 -0.22198120863113105 0.6237324244037556 -0.2772315793989074 0.6237324244037555 -0.2772315793989074 -0.3745475528600874 -0.22198120863113105
265.55183946488296 -0.3765541328367451 -0.22371745077748995 0.6216857965227328 -0.27960655115516275 0.6216857965227327 -0.27960655115516275 -0.376554132836745 -0.22371745077749022
268.561872909699 -0.37857093410966036 -0.22543111514218192 0.6196284731681445 -0.2819591269129273 0.6196284731681447 -0.2819591269129273 -0.37857093410966014 -0.22543111514218217
271.5719063545151 -0.38059764628509274 -0.2271221850581021 0.6175607641241547 -0.28428929212317455 0.617560764124155 -0.28428929212317455 -0.38059764628509263 -0.22712218505810194
274.58193979933105 -0.3826339606903563 -0.22879064873543664 0.6154829774464594 -0.28659703711613016 0.6154829774464591 -0.28659703711613 -0.38263396069035643 -0.22879064873543656
277.5919732441472 -0.38467957045374884 -0.23043649918959921 0.613395419382339 -0.28888235702922965 0.6133954193823383 -0.2888823570292294 -0.3846795704537489 -0.23043649918959924
280.6020066889632 -0.3867341705820524 -0.2320597341680245 0.6112983942931394 -0.29114525173393624 0.6112983942931391 -0.2911452517339362 -0.38673417058205234 -0.23205973416802445
283.61204013377926 -0.388797458035606 -0.23366035607589541 0.6091922045791806 -0.29338572576149097 0.6091922045791803 -0.2933857257614908 -0.38879745803560617 -0.23366035607589536
286.6220735785953 -0.39086913180094673 -0.23523837190088878 0.6070771506070962 -0.29560378822767963 0.6070771506070961 -0.2956037882276796 -0.3908691318009465 -0.23523837190088906
289.6321070234114 -0.3929488929610261 -0.2367937931370001 0.604953530639595 -0.29779945275668135 0.6049535306395951 -0.29779945275668146 -0.39294889296102614 -0.2367937931370001
292.6421404682274 -0.39503644476299743 -0.23832663570754226 0.6028216407676581 -0.2999727374040913 0.602821640767658 -0.29997273740409125 -0.3950364447629975 -0.2383266357075421
295.6521739130435 -0.3971314926835837 -0.2398369198873802 0.6006817748451464 -0.30212366457917655 0.6006817748451463 -0.30212366457917644 -0.3971314926835837 -0.23983691988738026
298.6622073578595 -0.399233744492042 -0.24132467022446802 0.5985342244258185 -0.30425226096643615 0.5985342244258193 -0.30425226096643654 -0.39923374449204213 -0.2413246702244679
301.6722408026756 -0.4013429103107213 -0.24278991546077683 0.5963792787027531 -0.3063585574465542 0.5963792787027531 -0.30635855744655416 -0.4013429103107209 -0.24278991546077688
304.6822742474916 -0.4034587026732387 -0.24423268845266696 0.5942172244501468 -0.3084425890167917 0.5942172244501468 -0.30844258901679183 -0.4034587026732386 -0.2442326884526671
307.69230769230774 -0.4055808365802784 -0.24565302609078624 0.5920483459675011 -0.31050439471091057 0.5920483459675013 -0.31050439471091085 -0.40558083658027844 -0.2456530260907863
310.7023411371237 -0.4077090295530366 -0.24705096921954808 0.5898729250261511 -0.31254401751867406 0.5898729250261513 -0.312544017518674 -0.4077090295530366 -0.24705096921954797
313.7123745819398 -0.4098430016843273 -0.2484265625562706 0.5876912408181401 -0.314561504305008 0.5876912408181401 -0.31456150430500796 -0.40984300168432725 -0.2484265625562705
316.72240802675583 -0.4119824756873692 -0.24977985461002866 0.5855035699074114 -0.3165569057288775 0.5855035699074115 -0.31655690572887757 -0.41198247568736895 -0.24977985461002886
319.7324414715719 -0.41412717694227197 -0.2511108976002857 0.5833101861832962 -0.3185302761619403 0.5833101861832964 -0.3185302761619405 -0.414127176942272 -0.25111089760028593
322.7424749163879 -0.4162768335402517 -0.2524197473753732 0.5811113608162821 -0.320481673607051 0.5811113608162822 -0.32048167360705104 -0.41627683354025147 -0.25241974737537337
325.75250836120404 -0.4184311763255928 -0.2537064633308636 0.5789073622160231 -0.32241115961665584 0.5789073622160225 -0.3224111596166556 -0.4184311763255929 -0.25370646333086366
328.76254180602 -0.42058993893538366 -0.25497110832791314 0.5766984559915829 -0.32431879921115975 0.5766984559915834 -0.32431879921116 -0.42058993893538343 -0.2549711083279135
331.77257525083616 -0.42275285783705774 -0.2562137486116136 0.5744849049138727 -0.326204660797301 0.574484904913873 -0.32620466079730115 -0.4227528578370579 -0.2562137486116136
334.78260869565213 -0.4249196723637588 -0.2574344537294194 0.5722669688802589 -0.32806881608660127 0.5722669688802594 -0.32806881608660154 -0.4249196723637587 -0.2574344537294194
337.7926421404682 -0.42709012474757246 -0.2586332964497067 0.5700449048813119 -0.329911340013949 0.5700449048813122 -0.3299113400139493 -0.42709012474757246 -0.25863329644970673
340.80267558528425 -0.42926396015064094 -0.25981035268049535 0.567818966969664 -0.3317323106563432 0.5678189669696642 -0.3317323106563432 -0.42926396015064094 -0.25981035268049535
343.81270903010034 -0.4314409266942013 -0.2609657013884164 0.5655894062309484 -0.33353180915188585 0.5655894062309486 -0.33353180915188585 -0.43144092669420114 -0.26096570138841635
346.8227424749163 -0.43362077548557976 -0.2620994245179449 0.5633564707567826 -0.33530991961903744 0.5633564707567821 -0.33530991961903706 -0.43362077548557965 -0.2620994245179449
349.83277591973246 -0.43580326064317043 -0.2632116069109566 0.5611204056197603 -0.3370667290761966 0.5611204056197605 -0.3370667290761967 -0.4358032606431702 -0.2632116069109567
352.84280936454843 -0.4379881393194317 -0.26430233622666677 0.5588814528504362 -0.338802327361664 0.5588814528504361 -0.33880232736166394 -0.4379881393194317 -0.26430233622666677
355.8528428093646 -0.4401751717219495 -0.265371702861962 0.556639851416231 -0.34051680705399584 0.5566398514162306 -0.34051680705399584 -0.44017517172194964 -0.26537170286196177
358.86287625418055 -0.44236412113258017 -0.26641979987220527 0.5543958372022685 -0.34221026339283406 0.5543958372022686 -0.3422102633928341 -0.4423641211325804 -0.26641979987220543
361.87290969899664 -0.4445547539247294 -0.26744672289252736 0.5521496429940688 -0.3438827942002191 0.5521496429940689 -0.34388279420021917 -0.4445547539247293 -0.26744672289252724
364.88294314381267 -0.44674683957879147 -0.2684525700596546 0.5499014984620824 -0.34553449980244466 0.5499014984620824 -0.34553449980244455 -0.44674683957879147 -0.2684525700596545
367.89297658862876 -0.44894015069579685 -0.26943744193430796 0.5476516301480173 -0.34716548295247696 0.5476516301480174 -0.34716548295247696 -0.4489401506957966 -0.26943744193430813
370.90301003344484 -0.4511344630092908 -0.27040144142421524 0.5454002614529344 -0.3487758487529926 0.545400261452934 -0.3487758487529925 -0.4511344630092909 -0.2704014414242153
373.9130434782609 -0.4533295553955009 -0.2713446737077546 0.5431476126270509 -0.35036570458004507 0.5431476126270521 -0.3503657045800458 -0.4533295553955009 -0.2713446737077545
376.9230769230769 -0.45552520988181133 -0.27226724615828257 0.5408939007612434 -0.3519351600074182 0.5408939007612443 -0.35193516000741865 -0.45552520988181155 -0.2722672461582824
379.933110367893 -0.4577212116536027 -0.27316926826916105 0.5386393397801769 -0.3534843267316739 0.5386393397801774 -0.3534843267316741 -0.45772121165360286 -0.27316926826916105
382.943143812709 -0.459917349059478 -0.27405085157951986 0.5363841404370505 -0.3550133184979404 0.5363841404370506 -0.3550133184979405 -0.459917349059478 -0.27405085157952
385.9531772575251 -0.4621134136149301 -0.2749121096007854 0.5341285103099062 -0.3565222510264645 0.5341285103099064 -0.3565222510264648 -0.4621134136149302 -0.27491210960078544
388.96321070234114 -0.4643092000044772 -0.2757531577439935 0.5318726537994625 -0.3580112419399494 0.5318726537994621 -0.3580112419399491 -0.464309200004477 -0.27575315774399367
391.9732441471572 -0.4665045060823161 -0.2765741132479173 0.5296167721284322 -0.3594804106917032 0.5296167721284326 -0.3594804106917035 -0.4665045060823161 -0.2765741132479172
394.98327759197326 -0.46869913287152376 -0.2773750951080372 0.5273610633422955 -0.36092987849463765 0.5273610633422953 -0.3609298784946375 -0.46869913287152387 -0.27737509510803704
397.9933110367893 -0.4708928845618551 -0.27815622400636114 0.5251057223114682 -0.3623597682511076 0.5251057223114676 -0.3623597682511072 -0.4708928845618551 -0.27815622400636103
401.0033444816053 -0.4730855685061708 -0.27891762224213507 0.5228509407348491 -0.3637702044836484 0.5228509407348488 -0.3637702044836481 -0.473085568506171 -0.27891762224213484
404.0133779264214 -0.47527699521553546 -0.2796594136634458 0.520596907144691 -0.365161313266602 0.5205969071446911 -0.36516131326660217 -0.4752769952155351 -0.2796594136634459
407.02341137123744 -0.4774669783530281 -0.2803817235997425 0.518343806912758 -0.36653322215866296 0.518343806912758 -0.366533222158663 -0.47746697835302804 -0.28038172359974245
410.03344481605353 -0.4796553347263003 -0.2810846787952971 0.5160918222577419 -0.3678860601363623 0.5160918222577415 -0.367886060136362 -0.47965533472629995 -0.28108467879529714
413.04347826086956 -0.4818418842789246 -0.28176840734360536 0.5138411322538771 -0.3692199575284922 0.5138411322538766 -0.36921995752849196 -0.4818418842789246 -0.28176840734360536
416.0535117056856 -0.4840264500805711 -0.2824330386227616 0.5115919128407405 -0.3705350459515069 0.5115919128407409 -0.37053504595150727 -0.484026450080571 -0.2824330386227617
419.0635451505017 -0.4862088583160441 -0.28307870323179957 0.5093443368341788 -0.3718314582458867 0.509344336834179 -0.37183145824588687 -0.4862088583160439 -0.28307870323179973
422.0735785953177 -0.4883889382732309 -0.2837055329280279 0.5070985739383287 -0.3731093284134965 0.5070985739383284 -0.37310932841349626 -0.4883889382732308 -0.2837055329280278
425.0836120401338 -0.49056652232998665 -0.2843136605653652 0.5048547907587038 -0.37436879155594716 0.5048547907587038 -0.3743687915559474 -0.4905665223299864 -0.28431366056536533
428.09364548494983 -0.4927414459399985 -0.2849032200336769 0.5026131508162949 -0.3756099838139562 0.5026131508162947 -0.37560998381395594 -0.4927414459399986 -0.2849032200336769
